Sun May 27 20:58:31 CEST 2012
     0  1  2  3  4  5  6  7  8  9  a  b  c  d  e  f    0123456789abcdef
00: 21 05 01 01 3f 31 e0 00 06 00 c5 0b e9 0f a9 ff    !????1?.?.?????.
10: 22 ff 12 00 af 31 ff 7f 00 00 0a 00 0a 00 46 0a    ".?.?1.?..?.?.F?
20: ca 0d 64 00 64 00 30 f8 c8 00 ff ff 18 fc 64 00    ??d.d.0??...??d.
30: 00 00 50 fb 20 21 06 00 00 00 07 00 XX XX XX XX    ..P? !?...?.XXXX

Sun May 27 20:59:02 CEST 2012
     0  1  2  3  4  5  6  7  8  9  a  b  c  d  e  f    0123456789abcdef
00: 21 05 01 01 3f 31 e0 00 06 00 c4 0b fd 0f f5 ff    !????1?.?.?????.
10: ef ff 12 00 d8 2b ff 7f 00 00 0a 00 0a 00 46 0a    ?.?.?+.?..?.?.F?
20: ca 0d 64 00 64 00 9c ff 0a 00 ff ff 18 fc 64 00    ??d.d.?.?...??d.
30: 00 00 50 fb 20 21 06 00 00 00 07 00 XX XX XX XX    ..P? !?...?.XXXX

Sun May 27 20:59:32 CEST 2012
     0  1  2  3  4  5  6  7  8  9  a  b  c  d  e  f    0123456789abcdef
00: 21 05 01 01 3f 31 e0 00 06 00 c2 0b fe 0f fd ff    !????1?.?.?????.
10: f5 ff 12 00 71 2a ff 7f 00 00 0a 00 0a 00 46 0a    ?.?.q*.?..?.?.F?
20: ca 0d 64 00 64 00 9c ff 0a 00 ff ff 18 fc 64 00    ??d.d.?.?...??d.
30: 00 00 50 fb 20 21 06 00 00 00 07 00 XX XX XX XX    ..P? !?...?.XXXX

Sun May 27 21:00:02 CEST 2012
     0  1  2  3  4  5  6  7  8  9  a  b  c  d  e  f    0123456789abcdef
00: 21 05 01 01 3f 31 e0 00 06 00 c0 0b fc 0f f6 ff    !????1?.?.?????.
10: f0 ff 12 00 8c 28 ff 7f 00 00 0a 00 0a 00 46 0a    ?.?.?(.?..?.?.F?
20: ca 0d 64 00 64 00 9c ff 0a 00 ff ff 18 fc 64 00    ??d.d.?.?...??d.
30: 00 00 50 fb 20 21 06 00 00 00 07 00 XX XX XX XX    ..P? !?...?.XXXX

Sun May 27 21:00:32 CEST 2012
     0  1  2  3  4  5  6  7  8  9  a  b  c  d  e  f    0123456789abcdef
00: 21 05 01 01 3f 31 e0 00 06 00 bf 0b fe 0f f6 ff    !????1?.?.?????.
10: f6 ff 12 00 0b 27 ff 7f 00 00 0a 00 0a 00 46 0a    ?.?.?'.?..?.?.F?
20: ca 0d 64 00 64 00 9c ff 0a 00 ff ff 18 fc 64 00    ??d.d.?.?...??d.
30: 00 00 50 fb 20 21 06 00 00 00 07 00 XX XX XX XX    ..P? !?...?.XXXX

Sun May 27 21:01:02 CEST 2012
     0  1  2  3  4  5  6  7  8  9  a  b  c  d  e  f    0123456789abcdef
00: 21 05 01 01 3f 31 e0 00 06 00 be 0b fd 0f f1 ff    !????1?.?.?????.
10: f6 ff 12 00 86 25 ff 7f 00 00 0a 00 0a 00 46 0a    ?.?.?%.?..?.?.F?
20: ca 0d 64 00 64 00 9c ff 0a 00 ff ff 18 fc 64 00    ??d.d.?.?...??d.
30: 00 00 50 fb 20 21 06 00 00 00 07 00 XX XX XX XX    ..P? !?...?.XXXX

Sun May 27 21:01:32 CEST 2012
     0  1  2  3  4  5  6  7  8  9  a  b  c  d  e  f    0123456789abcdef
00: 21 05 01 01 3f 31 e0 00 06 00 bd 0b ff 0f f6 ff    !????1?.?.??.??.
10: f7 ff 12 00 0c 24 ff 7f 00 00 0a 00 0a 00 46 0a    ?.?.?$.?..?.?.F?
20: ca 0d 64 00 64 00 9c ff 0a 00 ff ff 18 fc 64 00    ??d.d.?.?...??d.
30: 00 00 50 fb 20 21 06 00 00 00 07 00 XX XX XX XX    ..P? !?...?.XXXX

Sun May 27 21:02:02 CEST 2012
     0  1  2  3  4  5  6  7  8  9  a  b  c  d  e  f    0123456789abcdef
00: 21 05 01 01 3f 31 e0 00 06 00 bc 0b fe 0f fd ff    !????1?.?.?????.
10: f5 ff 12 00 7d 22 ff 7f 00 00 0a 00 0a 00 46 0a    ?.?.}".?..?.?.F?
20: ca 0d 64 00 64 00 9c ff 0a 00 ff ff 18 fc 64 00    ??d.d.?.?...??d.
30: 00 00 50 fb 20 21 06 00 00 00 07 00 XX XX XX XX    ..P? !?...?.XXXX

Sun May 27 21:02:32 CEST 2012
     0  1  2  3  4  5  6  7  8  9  a  b  c  d  e  f    0123456789abcdef
00: 21 05 01 01 3f 31 e0 00 06 00 bc 0b ff 0f f9 ff    !????1?.?.??.??.
10: f5 ff 12 00 00 21 ff 7f 00 00 0a 00 0a 00 46 0a    ?.?..!.?..?.?.F?
20: ca 0d 64 00 64 00 9c ff 0a 00 ff ff 18 fc 64 00    ??d.d.?.?...??d.
30: 00 00 50 fb 20 21 06 00 00 00 07 00 XX XX XX XX    ..P? !?...?.XXXX

Sun May 27 21:03:02 CEST 2012
     0  1  2  3  4  5  6  7  8  9  a  b  c  d  e  f    0123456789abcdef
00: 21 05 01 01 3f 31 e0 00 06 00 bb 0b ff 0f ed ff    !????1?.?.??.??.
10: f3 ff 12 00 73 1f ff 7f 00 00 0a 00 0a 00 46 0a    ?.?.s?.?..?.?.F?
20: ca 0d 64 00 64 00 9c ff 0a 00 ff ff 18 fc 64 00    ??d.d.?.?...??d.
30: 00 00 50 fb 20 21 06 00 00 00 07 00 XX XX XX XX    ..P? !?...?.XXXX

Sun May 27 21:03:32 CEST 2012
     0  1  2  3  4  5  6  7  8  9  a  b  c  d  e  f    0123456789abcdef
00: 21 05 01 01 3f 31 e0 00 06 00 bb 0b ff 0f fd ff    !????1?.?.??.??.
10: f6 ff 12 00 ff 1d ff 7f 00 00 0a 00 0a 00 46 0a    ?.?..?.?..?.?.F?
20: ca 0d 64 00 64 00 9c ff 0a 00 ff ff 18 fc 64 00    ??d.d.?.?...??d.
30: 00 00 50 fb 20 21 06 00 00 00 07 00 XX XX XX XX    ..P? !?...?.XXXX

Sun May 27 21:04:03 CEST 2012
     0  1  2  3  4  5  6  7  8  9  a  b  c  d  e  f    0123456789abcdef
00: 21 05 01 01 3f 31 e0 00 06 00 ba 0b ff 0f f9 ff    !????1?.?.??.??.
10: f6 ff 12 00 52 1c ff 7f 00 00 0a 00 0a 00 46 0a    ?.?.R?.?..?.?.F?
20: ca 0d 64 00 64 00 9c ff 0a 00 ff ff 18 fc 64 00    ??d.d.?.?...??d.
30: 00 00 50 fb 20 21 06 00 00 00 07 00 XX XX XX XX    ..P? !?...?.XXXX

Sun May 27 21:04:33 CEST 2012
     0  1  2  3  4  5  6  7  8  9  a  b  c  d  e  f    0123456789abcdef
00: 21 05 01 01 3f 31 e0 00 06 00 ba 0b fe 0f f8 ff    !????1?.?.?????.
10: f8 ff 12 00 bf 1a ff 7f 00 00 0a 00 0a 00 46 0a    ?.?.??.?..?.?.F?
20: ca 0d 64 00 64 00 9c ff 0a 00 ff ff 18 fc 64 00    ??d.d.?.?...??d.
30: 00 00 50 fb 20 21 06 00 00 00 07 00 XX XX XX XX    ..P? !?...?.XXXX

Sun May 27 21:05:03 CEST 2012
     0  1  2  3  4  5  6  7  8  9  a  b  c  d  e  f    0123456789abcdef
00: 21 05 01 01 3f 31 e0 00 06 00 b9 0b fd 0f e7 ff    !????1?.?.?????.
10: f7 ff 12 00 e3 18 ff 7f 00 00 0a 00 0a 00 46 0a    ?.?.??.?..?.?.F?
20: ca 0d 64 00 64 00 9c ff 0a 00 ff ff 18 fc 64 00    ??d.d.?.?...??d.
30: 00 00 50 fb 20 21 06 00 00 00 07 00 XX XX XX XX    ..P? !?...?.XXXX

Sun May 27 21:05:33 CEST 2012
     0  1  2  3  4  5  6  7  8  9  a  b  c  d  e  f    0123456789abcdef
00: 21 05 01 01 3f 31 e0 00 06 00 b9 0b fd 0f ec ff    !????1?.?.?????.
10: f8 ff 12 00 7c 17 ff 7f 00 00 0a 00 0a 00 46 0a    ?.?.|?.?..?.?.F?
20: ca 0d 64 00 64 00 9c ff 0a 00 ff ff 18 fc 64 00    ??d.d.?.?...??d.
30: 00 00 50 fb 20 21 06 00 00 00 07 00 XX XX XX XX    ..P? !?...?.XXXX

Sun May 27 21:06:03 CEST 2012
     0  1  2  3  4  5  6  7  8  9  a  b  c  d  e  f    0123456789abcdef
00: 21 05 01 01 3f 31 e0 00 06 00 b9 0b fc 0f ea ff    !????1?.?.?????.
10: f7 ff 12 00 ff 15 ff 7f 00 00 0a 00 0a 00 46 0a    ?.?..?.?..?.?.F?
20: ca 0d 64 00 64 00 9c ff 0a 00 ff ff 18 fc 64 00    ??d.d.?.?...??d.
30: 00 00 50 fb 20 21 06 00 00 00 07 00 XX XX XX XX    ..P? !?...?.XXXX

Sun May 27 21:06:33 CEST 2012
     0  1  2  3  4  5  6  7  8  9  a  b  c  d  e  f    0123456789abcdef
00: 21 05 01 01 3f 31 e0 00 06 00 b8 0b fe 0f f3 ff    !????1?.?.?????.
10: f8 ff 12 00 99 14 ff 7f 00 00 0a 00 0a 00 46 0a    ?.?.??.?..?.?.F?
20: ca 0d 64 00 64 00 9c ff 0a 00 ff ff 18 fc 64 00    ??d.d.?.?...??d.
30: 00 00 50 fb 20 21 06 00 00 00 07 00 XX XX XX XX    ..P? !?...?.XXXX

Sun May 27 21:07:03 CEST 2012
     0  1  2  3  4  5  6  7  8  9  a  b  c  d  e  f    0123456789abcdef
00: 21 05 01 01 3f 31 e0 00 06 00 b8 0b ff 0f fe ff    !????1?.?.??.??.
10: f5 ff 12 00 0e 13 ff 7f 00 00 0a 00 0a 00 46 0a    ?.?.??.?..?.?.F?
20: ca 0d 64 00 64 00 9c ff 0a 00 ff ff 18 fc 64 00    ??d.d.?.?...??d.
30: 00 00 50 fb 20 21 06 00 00 00 07 00 XX XX XX XX    ..P? !?...?.XXXX

Sun May 27 21:07:33 CEST 2012
     0  1  2  3  4  5  6  7  8  9  a  b  c  d  e  f    0123456789abcdef
00: 21 05 01 01 3f 31 e0 00 06 00 b7 0b fc 0f f3 ff    !????1?.?.?????.
10: f8 ff 12 00 98 11 ff 7f 00 00 0a 00 0a 00 46 0a    ?.?.??.?..?.?.F?
20: ca 0d 64 00 64 00 9c ff 0a 00 ff ff 18 fc 64 00    ??d.d.?.?...??d.
30: 00 00 50 fb 20 21 06 00 00 00 07 00 XX XX XX XX    ..P? !?...?.XXXX

Sun May 27 21:08:03 CEST 2012
     0  1  2  3  4  5  6  7  8  9  a  b  c  d  e  f    0123456789abcdef
00: 21 05 01 01 3f 31 e0 00 06 00 b7 0b fc 0f f7 ff    !????1?.?.?????.
10: f6 ff 12 00 0f 10 ff 7f 00 00 0a 00 0a 00 46 0a    ?.?.??.?..?.?.F?
20: ca 0d 64 00 64 00 9c ff 0a 00 ff ff 18 fc 64 00    ??d.d.?.?...??d.
30: 00 00 50 fb 20 21 06 00 00 00 07 00 XX XX XX XX    ..P? !?...?.XXXX

Sun May 27 21:08:33 CEST 2012
     0  1  2  3  4  5  6  7  8  9  a  b  c  d  e  f    0123456789abcdef
00: 21 05 01 01 3f 31 e0 00 06 00 b6 0b fe 0f f3 ff    !????1?.?.?????.
10: f6 ff 12 00 74 0e ff 7f 00 00 0a 00 0a 00 46 0a    ?.?.t?.?..?.?.F?
20: ca 0d 64 00 64 00 9c ff 0a 00 ff ff 18 fc 64 00    ??d.d.?.?...??d.
30: 00 00 50 fb 20 21 06 00 00 00 07 00 XX XX XX XX    ..P? !?...?.XXXX

Sun May 27 21:09:04 CEST 2012
     0  1  2  3  4  5  6  7  8  9  a  b  c  d  e  f    0123456789abcdef
00: 21 05 01 01 3f 31 e0 00 06 00 b6 0b fe 0f ed ff    !????1?.?.?????.
10: f6 ff 12 00 cc 0c ff 7f 00 00 0a 00 0a 00 46 0a    ?.?.??.?..?.?.F?
20: ca 0d 64 00 64 00 9c ff 0a 00 ff ff 18 fc 64 00    ??d.d.?.?...??d.
30: 00 00 50 fb 20 21 06 00 00 00 07 00 XX XX XX XX    ..P? !?...?.XXXX

Sun May 27 21:09:34 CEST 2012
     0  1  2  3  4  5  6  7  8  9  a  b  c  d  e  f    0123456789abcdef
00: 21 05 01 01 3f 31 e0 00 06 00 b6 0b fd 0f f2 ff    !????1?.?.?????.
10: f7 ff 12 00 96 0a ff 7f 00 00 0a 00 0a 00 46 0a    ?.?.??.?..?.?.F?
20: ca 0d 64 00 64 00 9c ff 0a 00 ff ff 18 fc 64 00    ??d.d.?.?...??d.
30: 00 00 50 fb 20 21 06 00 00 00 07 00 XX XX XX XX    ..P? !?...?.XXXX

Sun May 27 21:10:04 CEST 2012
     0  1  2  3  4  5  6  7  8  9  a  b  c  d  e  f    0123456789abcdef
00: 21 05 01 01 3f 31 e0 00 06 00 b6 0b fa 0f fd ff    !????1?.?.?????.
10: f6 ff 12 00 8b 08 ff 7f 00 00 0a 00 0a 00 46 0a    ?.?.??.?..?.?.F?
20: ca 0d 64 00 64 00 9c ff 0a 00 ff ff 18 fc 64 00    ??d.d.?.?...??d.
30: 00 00 50 fb 20 21 06 00 00 00 07 00 XX XX XX XX    ..P? !?...?.XXXX

Sun May 27 21:10:34 CEST 2012
     0  1  2  3  4  5  6  7  8  9  a  b  c  d  e  f    0123456789abcdef
00: 21 05 01 01 3f 31 e0 00 06 00 b5 0b fa 0f fb ff    !????1?.?.?????.
10: f8 ff 12 00 00 07 ff 7f 00 00 0a 00 0a 00 46 0a    ?.?..?.?..?.?.F?
20: ca 0d 64 00 64 00 9c ff 0a 00 ff ff 18 fc 64 00    ??d.d.?.?...??d.
30: 00 00 50 fb 20 21 06 00 00 00 07 00 XX XX XX XX    ..P? !?...?.XXXX

Sun May 27 21:11:04 CEST 2012
     0  1  2  3  4  5  6  7  8  9  a  b  c  d  e  f    0123456789abcdef
00: 21 05 01 01 3f 31 e0 00 06 00 b5 0b fc 0f f8 ff    !????1?.?.?????.
10: f8 ff 12 00 1c 05 ff 7f 00 00 0a 00 0a 00 46 0a    ?.?.??.?..?.?.F?
20: ca 0d 64 00 64 00 9c ff 0a 00 ff ff 18 fc 64 00    ??d.d.?.?...??d.
30: 00 00 50 fb 20 21 06 00 00 00 07 00 XX XX XX XX    ..P? !?...?.XXXX

Sun May 27 21:11:34 CEST 2012
     0  1  2  3  4  5  6  7  8  9  a  b  c  d  e  f    0123456789abcdef
00: 21 05 01 01 3f 31 e0 00 06 00 b4 0b f5 0f f9 ff    !????1?.?.?????.
10: e1 ff 12 00 49 03 ff 7f 00 00 0a 00 0a 00 46 0a    ?.?.I?.?..?.?.F?
20: ca 0d 64 00 64 00 9c ff 0a 00 ff ff 18 fc 64 00    ??d.d.?.?...??d.
30: 00 00 50 fb 20 21 06 00 00 00 07 00 XX XX XX XX    ..P? !?...?.XXXX

Sun May 27 21:12:04 CEST 2012
     0  1  2  3  4  5  6  7  8  9  a  b  c  d  e  f    0123456789abcdef
00: 21 05 01 01 3f 31 e0 00 06 00 b4 0b fd 0f fa ff    !????1?.?.?????.
10: f8 ff 12 00 af 01 ff 7f 00 00 0a 00 0a 00 46 0a    ?.?.??.?..?.?.F?
20: ca 0d 64 00 64 00 9c ff 0a 00 ff ff 18 fc 64 00    ??d.d.?.?...??d.
30: 00 00 50 fb 20 21 06 00 00 00 07 00 XX XX XX XX    ..P? !?...?.XXXX

Sun May 27 21:12:34 CEST 2012
     0  1  2  3  4  5  6  7  8  9  a  b  c  d  e  f    0123456789abcdef
00: 21 05 01 01 3f 31 e0 00 06 00 b4 0b fc 0f fd ff    !????1?.?.?????.
10: f9 ff 11 00 ce ff ff 7f 00 00 0a 00 0a 00 46 0a    ?.?.?..?..?.?.F?
20: ca 0d 64 00 64 00 9c ff 0a 00 ff ff 18 fc 64 00    ??d.d.?.?...??d.
30: 00 00 50 fb 20 21 06 00 00 00 07 00 XX XX XX XX    ..P? !?...?.XXXX

Sun May 27 21:13:04 CEST 2012
     0  1  2  3  4  5  6  7  8  9  a  b  c  d  e  f    0123456789abcdef
00: 21 05 01 01 3f 31 e0 00 06 00 b3 0b fb 0f fc ff    !????1?.?.?????.
10: f6 ff 11 00 07 fe ff 7f 00 00 0a 00 0a 00 46 0a    ?.?.??.?..?.?.F?
20: ca 0d 64 00 64 00 9c ff 0a 00 ff ff 18 fc 64 00    ??d.d.?.?...??d.
30: 00 00 50 fb 20 21 06 00 00 00 07 00 XX XX XX XX    ..P? !?...?.XXXX

Sun May 27 21:13:34 CEST 2012
     0  1  2  3  4  5  6  7  8  9  a  b  c  d  e  f    0123456789abcdef
00: 21 05 01 01 3f 31 e0 00 06 00 b3 0b fc 0f f0 ff    !????1?.?.?????.
10: f8 ff 11 00 2d fc ff 7f 00 00 0a 00 0a 00 46 0a    ?.?.-?.?..?.?.F?
20: ca 0d 64 00 64 00 9c ff 0a 00 ff ff 18 fc 64 00    ??d.d.?.?...??d.
30: 00 00 50 fb 20 21 06 00 00 00 07 00 XX XX XX XX    ..P? !?...?.XXXX

Sun May 27 21:14:04 CEST 2012
     0  1  2  3  4  5  6  7  8  9  a  b  c  d  e  f    0123456789abcdef
00: 21 05 01 01 3f 31 e0 00 06 00 b3 0b fd 0f f0 ff    !????1?.?.?????.
10: f7 ff 11 00 50 fa ff 7f 00 00 0a 00 0a 00 46 0a    ?.?.P?.?..?.?.F?
20: ca 0d 64 00 64 00 9c ff 0a 00 ff ff 18 fc 64 00    ??d.d.?.?...??d.
30: 00 00 50 fb 20 21 06 00 00 00 07 00 XX XX XX XX    ..P? !?...?.XXXX

Sun May 27 21:14:35 CEST 2012
     0  1  2  3  4  5  6  7  8  9  a  b  c  d  e  f    0123456789abcdef
00: 21 05 01 01 3f 31 e0 00 06 00 b2 0b fd 0f ed ff    !????1?.?.?????.
10: c8 ff 11 00 84 f8 ff 7f 00 00 0a 00 0a 00 46 0a    ?.?.??.?..?.?.F?
20: ca 0d 64 00 64 00 9c ff 0a 00 ff ff 18 fc 64 00    ??d.d.?.?...??d.
30: 00 00 50 fb 20 21 06 00 00 00 07 00 XX XX XX XX    ..P? !?...?.XXXX

Sun May 27 21:15:05 CEST 2012
     0  1  2  3  4  5  6  7  8  9  a  b  c  d  e  f    0123456789abcdef
00: 21 05 01 01 3f 31 e0 00 06 00 b2 0b fd 0f f8 ff    !????1?.?.?????.
10: f8 ff 11 00 a7 f6 ff 7f 00 00 0a 00 0a 00 46 0a    ?.?.??.?..?.?.F?
20: ca 0d 64 00 64 00 9c ff 0a 00 ff ff 18 fc 64 00    ??d.d.?.?...??d.
30: 00 00 50 fb 20 21 06 00 00 00 07 00 XX XX XX XX    ..P? !?...?.XXXX

Sun May 27 21:15:35 CEST 2012
     0  1  2  3  4  5  6  7  8  9  a  b  c  d  e  f    0123456789abcdef
00: 21 05 01 01 3f 31 e0 00 06 00 b2 0b f5 0f f5 ff    !????1?.?.?????.
10: e1 ff 11 00 e2 f4 ff 7f 00 00 0a 00 0a 00 46 0a    ?.?.??.?..?.?.F?
20: ca 0d 64 00 64 00 9c ff 0a 00 ff ff 18 fc 64 00    ??d.d.?.?...??d.
30: 00 00 50 fb 20 21 06 00 00 00 07 00 XX XX XX XX    ..P? !?...?.XXXX

Sun May 27 21:16:05 CEST 2012
     0  1  2  3  4  5  6  7  8  9  a  b  c  d  e  f    0123456789abcdef
00: 21 05 01 01 3f 31 e0 00 06 00 b1 0b fa 0f f7 ff    !????1?.?.?????.
10: f7 ff 11 00 45 f3 ff 7f 00 00 0a 00 0a 00 46 0a    ?.?.E?.?..?.?.F?
20: ca 0d 64 00 64 00 9c ff 0a 00 ff ff 18 fc 64 00    ??d.d.?.?...??d.
30: 00 00 50 fb 20 21 06 00 00 00 07 00 XX XX XX XX    ..P? !?...?.XXXX

Sun May 27 21:16:35 CEST 2012
     0  1  2  3  4  5  6  7  8  9  a  b  c  d  e  f    0123456789abcdef
00: 21 05 01 01 3f 31 e0 00 06 00 b1 0b fc 0f fd ff    !????1?.?.?????.
10: f8 ff 11 00 62 f1 ff 7f 00 00 0a 00 0a 00 46 0a    ?.?.b?.?..?.?.F?
20: ca 0d 64 00 64 00 9c ff 0a 00 ff ff 18 fc 64 00    ??d.d.?.?...??d.
30: 00 00 50 fb 20 21 06 00 00 00 07 00 XX XX XX XX    ..P? !?...?.XXXX

Sun May 27 21:17:05 CEST 2012
     0  1  2  3  4  5  6  7  8  9  a  b  c  d  e  f    0123456789abcdef
00: 21 05 01 01 3f 31 e0 00 06 00 b1 0b fa 0f 86 ff    !????1?.?.?????.
10: f5 ff 11 00 cd ef ff 7f 00 00 0a 00 0a 00 46 0a    ?.?.??.?..?.?.F?
20: ca 0d 64 00 64 00 9c ff 0a 00 ff ff 18 fc 64 00    ??d.d.?.?...??d.
30: 00 00 50 fb 20 21 06 00 00 00 07 00 XX XX XX XX    ..P? !?...?.XXXX

Sun May 27 21:17:35 CEST 2012
     0  1  2  3  4  5  6  7  8  9  a  b  c  d  e  f    0123456789abcdef
00: 21 05 01 01 3f 31 e0 00 06 00 b1 0b fb 0f f4 ff    !????1?.?.?????.
10: f6 ff 11 00 f0 ed ff 7f 00 00 0a 00 0a 00 46 0a    ?.?.??.?..?.?.F?
20: ca 0d 64 00 64 00 9c ff 0a 00 ff ff 18 fc 64 00    ??d.d.?.?...??d.
30: 00 00 50 fb 20 21 06 00 00 00 07 00 XX XX XX XX    ..P? !?...?.XXXX

Sun May 27 21:18:05 CEST 2012
     0  1  2  3  4  5  6  7  8  9  a  b  c  d  e  f    0123456789abcdef
00: 21 05 01 01 3f 31 e0 00 06 00 b0 0b fb 0f f7 ff    !????1?.?.?????.
10: f7 ff 11 00 1a ec ff 7f 00 00 0a 00 0a 00 46 0a    ?.?.??.?..?.?.F?
20: ca 0d 64 00 64 00 9c ff 0a 00 ff ff 18 fc 64 00    ??d.d.?.?...??d.
30: 00 00 50 fb 20 21 06 00 00 00 07 00 XX XX XX XX    ..P? !?...?.XXXX

Sun May 27 21:18:35 CEST 2012
     0  1  2  3  4  5  6  7  8  9  a  b  c  d  e  f    0123456789abcdef
00: 21 05 01 01 3f 31 e0 00 06 00 b0 0b fc 0f f5 ff    !????1?.?.?????.
10: f4 ff 11 00 29 ea ff 7f 00 00 0a 00 0a 00 46 0a    ?.?.)?.?..?.?.F?
20: ca 0d 64 00 64 00 9c ff 0a 00 ff ff 18 fc 64 00    ??d.d.?.?...??d.
30: 00 00 50 fb 20 21 06 00 00 00 07 00 XX XX XX XX    ..P? !?...?.XXXX

Sun May 27 21:19:05 CEST 2012
     0  1  2  3  4  5  6  7  8  9  a  b  c  d  e  f    0123456789abcdef
00: 21 05 01 01 3f 31 e0 00 06 00 b0 0b fc 0f f4 ff    !????1?.?.?????.
10: f4 ff 11 00 1b e8 ff 7f 00 00 0a 00 0a 00 46 0a    ?.?.??.?..?.?.F?
20: ca 0d 64 00 64 00 9c ff 0a 00 ff ff 18 fc 64 00    ??d.d.?.?...??d.
30: 00 00 50 fb 20 21 06 00 00 00 07 00 XX XX XX XX    ..P? !?...?.XXXX

Sun May 27 21:19:36 CEST 2012
     0  1  2  3  4  5  6  7  8  9  a  b  c  d  e  f    0123456789abcdef
00: 21 05 01 01 3f 31 e0 00 06 00 b0 0b f0 0f f0 ff    !????1?.?.?????.
10: df ff 11 00 3a e6 ff 7f 00 00 0a 00 0a 00 46 0a    ?.?.:?.?..?.?.F?
20: ca 0d 64 00 64 00 9c ff 0a 00 ff ff 18 fc 64 00    ??d.d.?.?...??d.
30: 00 00 50 fb 20 21 06 00 00 00 07 00 XX XX XX XX    ..P? !?...?.XXXX

Sun May 27 21:20:06 CEST 2012
     0  1  2  3  4  5  6  7  8  9  a  b  c  d  e  f    0123456789abcdef
00: 21 05 01 01 3f 31 e0 00 06 00 b0 0b fb 0f cd ff    !????1?.?.?????.
10: f6 ff 11 00 99 e4 ff 7f 00 00 0a 00 0a 00 46 0a    ?.?.??.?..?.?.F?
20: ca 0d 64 00 64 00 9c ff 0a 00 ff ff 18 fc 64 00    ??d.d.?.?...??d.
30: 00 00 50 fb 20 21 06 00 00 00 07 00 XX XX XX XX    ..P? !?...?.XXXX

Sun May 27 21:20:36 CEST 2012
     0  1  2  3  4  5  6  7  8  9  a  b  c  d  e  f    0123456789abcdef
00: 21 05 01 01 3f 31 e0 00 06 00 af 0b fb 0f f1 ff    !????1?.?.?????.
10: f3 ff 11 00 03 e2 ff 7f 00 00 0a 00 0a 00 46 0a    ?.?.??.?..?.?.F?
20: ca 0d 64 00 64 00 9c ff 0a 00 ff ff 18 fc 64 00    ??d.d.?.?...??d.
30: 00 00 50 fb 20 21 06 00 00 00 07 00 XX XX XX XX    ..P? !?...?.XXXX

Sun May 27 21:21:06 CEST 2012
     0  1  2  3  4  5  6  7  8  9  a  b  c  d  e  f    0123456789abcdef
00: 21 05 01 01 3f 31 e0 00 06 00 af 0b fb 0f 5b ff    !????1?.?.????[.
10: f4 ff 11 00 64 e0 ff 7f 00 00 0a 00 0a 00 46 0a    ?.?.d?.?..?.?.F?
20: ca 0d 64 00 64 00 9c ff 0a 00 ff ff 18 fc 64 00    ??d.d.?.?...??d.
30: 00 00 50 fb 20 21 06 00 00 00 07 00 XX XX XX XX    ..P? !?...?.XXXX

Sun May 27 21:21:36 CEST 2012
     0  1  2  3  4  5  6  7  8  9  a  b  c  d  e  f    0123456789abcdef
00: 21 05 01 01 3f 31 e0 00 06 00 af 0b fb 0f f5 ff    !????1?.?.?????.
10: f5 ff 11 00 91 de ff 7f 00 00 0a 00 0a 00 46 0a    ?.?.??.?..?.?.F?
20: ca 0d 64 00 64 00 9c ff 0a 00 ff ff 18 fc 64 00    ??d.d.?.?...??d.
30: 00 00 50 fb 20 21 06 00 00 00 07 00 XX XX XX XX    ..P? !?...?.XXXX

Sun May 27 21:22:06 CEST 2012
     0  1  2  3  4  5  6  7  8  9  a  b  c  d  e  f    0123456789abcdef
00: 21 05 01 01 3f 31 e0 00 06 00 af 0b fb 0f f0 ff    !????1?.?.?????.
10: f5 ff 11 00 8c dc ff 7f 00 00 0a 00 0a 00 46 0a    ?.?.??.?..?.?.F?
20: ca 0d 64 00 64 00 9c ff 0a 00 ff ff 18 fc 64 00    ??d.d.?.?...??d.
30: 00 00 50 fb 20 21 06 00 00 00 07 00 XX XX XX XX    ..P? !?...?.XXXX

Sun May 27 21:22:36 CEST 2012
     0  1  2  3  4  5  6  7  8  9  a  b  c  d  e  f    0123456789abcdef
00: 21 05 01 01 3f 31 e0 00 06 00 ae 0b fb 0f ef ff    !????1?.?.?????.
10: f2 ff 11 00 fb da ff 7f 00 00 0a 00 0a 00 46 0a    ?.?.??.?..?.?.F?
20: ca 0d 64 00 64 00 9c ff 0a 00 ff ff 18 fc 64 00    ??d.d.?.?...??d.
30: 00 00 50 fb 20 21 06 00 00 00 07 00 XX XX XX XX    ..P? !?...?.XXXX

Sun May 27 21:23:06 CEST 2012
     0  1  2  3  4  5  6  7  8  9  a  b  c  d  e  f    0123456789abcdef
00: 21 05 01 01 3f 31 e0 00 06 00 ae 0b f9 0f e6 ff    !????1?.?.?????.
10: f7 ff 11 00 2a d9 ff 7f 00 00 0a 00 0a 00 46 0a    ?.?.*?.?..?.?.F?
20: ca 0d 64 00 64 00 9c ff 0a 00 ff ff 18 fc 64 00    ??d.d.?.?...??d.
30: 00 00 50 fb 20 21 06 00 00 00 07 00 XX XX XX XX    ..P? !?...?.XXXX

Sun May 27 21:23:36 CEST 2012
     0  1  2  3  4  5  6  7  8  9  a  b  c  d  e  f    0123456789abcdef
00: 21 05 01 01 3f 31 e0 00 06 00 ae 0b f3 0f ee ff    !????1?.?.?????.
10: df ff 11 00 2a d7 ff 7f 00 00 0a 00 0a 00 46 0a    ?.?.*?.?..?.?.F?
20: ca 0d 64 00 64 00 9c ff 0a 00 ff ff 18 fc 64 00    ??d.d.?.?...??d.
30: 00 00 50 fb 20 21 06 00 00 00 07 00 XX XX XX XX    ..P? !?...?.XXXX

Sun May 27 21:24:06 CEST 2012
     0  1  2  3  4  5  6  7  8  9  a  b  c  d  e  f    0123456789abcdef
00: 21 05 01 01 3f 31 e0 00 06 00 ae 0b f9 0f f2 ff    !????1?.?.?????.
10: f7 ff 11 00 71 d5 ff 7f 00 00 0a 00 0a 00 46 0a    ?.?.q?.?..?.?.F?
20: ca 0d 64 00 64 00 9c ff 0a 00 ff ff 18 fc 64 00    ??d.d.?.?...??d.
30: 00 00 50 fb 20 21 06 00 00 00 07 00 XX XX XX XX    ..P? !?...?.XXXX

Sun May 27 21:24:37 CEST 2012
     0  1  2  3  4  5  6  7  8  9  a  b  c  d  e  f    0123456789abcdef
00: 21 05 01 01 3f 31 e0 00 06 00 ad 0b fb 0f f1 ff    !????1?.?.?????.
10: f2 ff 11 00 aa d3 ff 7f 00 00 0a 00 0a 00 46 0a    ?.?.??.?..?.?.F?
20: ca 0d 64 00 64 00 30 f8 c8 00 ff ff 18 fc 64 00    ??d.d.0??...??d.
30: 00 00 50 fb 20 21 06 00 00 00 07 00 XX XX XX XX    ..P? !?...?.XXXX

Sun May 27 21:25:07 CEST 2012
     0  1  2  3  4  5  6  7  8  9  a  b  c  d  e  f    0123456789abcdef
00: 21 05 01 01 3f 31 e0 00 06 00 ad 0b fa 0f f3 ff    !????1?.?.?????.
10: f7 ff 11 00 5b d2 ff 7f 00 00 0a 00 0a 00 46 0a    ?.?.[?.?..?.?.F?
20: ca 0d 64 00 64 00 9c ff 0a 00 ff ff 18 fc 64 00    ??d.d.?.?...??d.
30: 00 00 50 fb 20 21 06 00 00 00 07 00 XX XX XX XX    ..P? !?...?.XXXX

Sun May 27 21:25:37 CEST 2012
     0  1  2  3  4  5  6  7  8  9  a  b  c  d  e  f    0123456789abcdef
00: 21 05 01 01 3f 31 e0 00 06 00 ad 0b fa 0f ef ff    !????1?.?.?????.
10: f8 ff 11 00 1b d1 ff 7f 00 00 0a 00 0a 00 46 0a    ?.?.??.?..?.?.F?
20: ca 0d 64 00 64 00 9c ff 0a 00 ff ff 18 fc 64 00    ??d.d.?.?...??d.
30: 00 00 50 fb 20 21 06 00 00 00 07 00 XX XX XX XX    ..P? !?...?.XXXX

Sun May 27 21:26:07 CEST 2012
     0  1  2  3  4  5  6  7  8  9  a  b  c  d  e  f    0123456789abcdef
00: 21 05 01 01 3f 31 e0 00 06 00 ad 0b fb 0f e9 ff    !????1?.?.?????.
10: f4 ff 11 00 de cf ff 7f 00 00 0a 00 0a 00 46 0a    ?.?.??.?..?.?.F?
20: ca 0d 64 00 64 00 9c ff 0a 00 ff ff 18 fc 64 00    ??d.d.?.?...??d.
30: 00 00 50 fb 20 21 06 00 00 00 07 00 XX XX XX XX    ..P? !?...?.XXXX

Sun May 27 21:26:37 CEST 2012
     0  1  2  3  4  5  6  7  8  9  a  b  c  d  e  f    0123456789abcdef
00: 21 05 01 01 3f 31 e0 00 06 00 ac 0b fb 0f f4 ff    !????1?.?.?????.
10: f5 ff 11 00 a2 ce ff 7f 00 00 0a 00 0a 00 46 0a    ?.?.??.?..?.?.F?
20: ca 0d 64 00 64 00 9c ff 0a 00 ff ff 18 fc 64 00    ??d.d.?.?...??d.
30: 00 00 50 fb 20 21 06 00 00 00 07 00 XX XX XX XX    ..P? !?...?.XXXX

Sun May 27 21:27:07 CEST 2012
     0  1  2  3  4  5  6  7  8  9  a  b  c  d  e  f    0123456789abcdef
00: 21 05 01 01 3f 31 e0 00 06 00 ac 0b fb 0f eb ff    !????1?.?.?????.
10: f1 ff 11 00 55 cd ff 7f 00 00 0a 00 0a 00 46 0a    ?.?.U?.?..?.?.F?
20: ca 0d 64 00 64 00 9c ff 0a 00 ff ff 18 fc 64 00    ??d.d.?.?...??d.
30: 00 00 50 fb 20 21 06 00 00 00 07 00 XX XX XX XX    ..P? !?...?.XXXX

Sun May 27 21:27:37 CEST 2012
     0  1  2  3  4  5  6  7  8  9  a  b  c  d  e  f    0123456789abcdef
00: 21 05 01 01 3f 31 e0 00 06 00 ac 0b f9 0f da ff    !????1?.?.?????.
10: f3 ff 11 00 1b cc ff 7f 00 00 0a 00 0a 00 46 0a    ?.?.??.?..?.?.F?
20: ca 0d 64 00 64 00 9c ff 0a 00 ff ff 18 fc 64 00    ??d.d.?.?...??d.
30: 00 00 50 fb 20 21 06 00 00 00 07 00 XX XX XX XX    ..P? !?...?.XXXX

Sun May 27 21:28:07 CEST 2012
     0  1  2  3  4  5  6  7  8  9  a  b  c  d  e  f    0123456789abcdef
00: 21 05 01 01 3f 31 e0 00 06 00 ac 0b f9 0f f1 ff    !????1?.?.?????.
10: f5 ff 11 00 cb ca ff 7f 00 00 0a 00 0a 00 46 0a    ?.?.??.?..?.?.F?
20: ca 0d 64 00 64 00 9c ff 0a 00 ff ff 18 fc 64 00    ??d.d.?.?...??d.
30: 00 00 50 fb 20 21 06 00 00 00 07 00 XX XX XX XX    ..P? !?...?.XXXX

Sun May 27 21:28:37 CEST 2012
     0  1  2  3  4  5  6  7  8  9  a  b  c  d  e  f    0123456789abcdef
00: 21 05 01 01 3f 31 e0 00 06 00 ab 0b fa 0f e9 ff    !????1?.?.?????.
10: f6 ff 11 00 9b c9 ff 7f 00 00 0a 00 0a 00 46 0a    ?.?.??.?..?.?.F?
20: ca 0d 64 00 64 00 9c ff 0a 00 ff ff 18 fc 64 00    ??d.d.?.?...??d.
30: 00 00 50 fb 20 21 06 00 00 00 07 00 XX XX XX XX    ..P? !?...?.XXXX

Sun May 27 21:29:07 CEST 2012
     0  1  2  3  4  5  6  7  8  9  a  b  c  d  e  f    0123456789abcdef
00: 21 05 01 01 3f 31 e0 00 06 00 ab 0b f7 0f f0 ff    !????1?.?.?????.
10: f6 ff 11 00 43 c8 ff 7f 00 00 0a 00 0a 00 46 0a    ?.?.C?.?..?.?.F?
20: ca 0d 64 00 64 00 9c ff 0a 00 ff ff 18 fc 64 00    ??d.d.?.?...??d.
30: 00 00 50 fb 20 21 06 00 00 00 07 00 XX XX XX XX    ..P? !?...?.XXXX

Sun May 27 21:29:38 CEST 2012
     0  1  2  3  4  5  6  7  8  9  a  b  c  d  e  f    0123456789abcdef
00: 21 05 01 01 3f 31 e0 00 06 00 ab 0b f9 0f f3 ff    !????1?.?.?????.
10: f7 ff 11 00 df c6 ff 7f 00 00 0a 00 0a 00 46 0a    ?.?.??.?..?.?.F?
20: ca 0d 64 00 64 00 9c ff 0a 00 ff ff 18 fc 64 00    ??d.d.?.?...??d.
30: 00 00 50 fb 20 21 06 00 00 00 07 00 XX XX XX XX    ..P? !?...?.XXXX

Sun May 27 21:30:08 CEST 2012
     0  1  2  3  4  5  6  7  8  9  a  b  c  d  e  f    0123456789abcdef
00: 21 05 01 01 3f 31 e0 00 06 00 ab 0b f5 0f f2 ff    !????1?.?.?????.
10: ed ff 11 00 89 c5 ff 7f 00 00 0a 00 0a 00 46 0a    ?.?.??.?..?.?.F?
20: ca 0d 64 00 64 00 9c ff 0a 00 ff ff 18 fc 64 00    ??d.d.?.?...??d.
30: 00 00 50 fb 20 21 06 00 00 00 07 00 XX XX XX XX    ..P? !?...?.XXXX

Sun May 27 21:30:38 CEST 2012
     0  1  2  3  4  5  6  7  8  9  a  b  c  d  e  f    0123456789abcdef
00: 21 05 01 01 3f 31 e0 00 06 00 ab 0b f8 0f f6 ff    !????1?.?.?????.
10: ef ff 11 00 ed c3 ff 7f 00 00 0a 00 0a 00 46 0a    ?.?.??.?..?.?.F?
20: ca 0d 64 00 64 00 9c ff 0a 00 ff ff 18 fc 64 00    ??d.d.?.?...??d.
30: 00 00 50 fb 20 21 06 00 00 00 07 00 XX XX XX XX    ..P? !?...?.XXXX

Sun May 27 21:31:08 CEST 2012
     0  1  2  3  4  5  6  7  8  9  a  b  c  d  e  f    0123456789abcdef
00: 21 05 01 01 3f 31 e0 00 06 00 ab 0b fa 0f e3 ff    !????1?.?.?????.
10: f7 ff 11 00 9c c2 ff 7f 00 00 0a 00 0a 00 46 0a    ?.?.??.?..?.?.F?
20: ca 0d 64 00 64 00 9c ff 0a 00 ff ff 18 fc 64 00    ??d.d.?.?...??d.
30: 00 00 50 fb 20 21 06 00 00 00 07 00 XX XX XX XX    ..P? !?...?.XXXX

Sun May 27 21:31:38 CEST 2012
     0  1  2  3  4  5  6  7  8  9  a  b  c  d  e  f    0123456789abcdef
00: 21 05 01 01 3f 31 e0 00 06 00 aa 0b f9 0f f6 ff    !????1?.?.?????.
10: f6 ff 11 00 4d c1 ff 7f 00 00 0a 00 0a 00 46 0a    ?.?.M?.?..?.?.F?
20: ca 0d 64 00 64 00 9c ff 0a 00 ff ff 18 fc 64 00    ??d.d.?.?...??d.
30: 00 00 50 fb 20 21 06 00 00 00 07 00 XX XX XX XX    ..P? !?...?.XXXX

Sun May 27 21:32:08 CEST 2012
     0  1  2  3  4  5  6  7  8  9  a  b  c  d  e  f    0123456789abcdef
00: 21 05 01 01 3f 31 e0 00 06 00 aa 0b fa 0f f9 ff    !????1?.?.?????.
10: f8 ff 11 00 10 c0 ff 7f 00 00 0a 00 0a 00 46 0a    ?.?.??.?..?.?.F?
20: ca 0d 64 00 64 00 9c ff 0a 00 ff ff 18 fc 64 00    ??d.d.?.?...??d.
30: 00 00 50 fb 20 21 06 00 00 00 07 00 XX XX XX XX    ..P? !?...?.XXXX

Sun May 27 21:32:38 CEST 2012
     0  1  2  3  4  5  6  7  8  9  a  b  c  d  e  f    0123456789abcdef
00: 21 05 01 01 3f 31 e0 00 06 00 aa 0b fa 0f f8 ff    !????1?.?.?????.
10: f8 ff 11 00 da be ff 7f 00 00 0a 00 0a 00 46 0a    ?.?.??.?..?.?.F?
20: ca 0d 64 00 64 00 9c ff 0a 00 ff ff 18 fc 64 00    ??d.d.?.?...??d.
30: 00 00 50 fb 20 21 06 00 00 00 07 00 XX XX XX XX    ..P? !?...?.XXXX

Sun May 27 21:33:08 CEST 2012
     0  1  2  3  4  5  6  7  8  9  a  b  c  d  e  f    0123456789abcdef
00: 21 05 01 01 3f 31 e0 00 06 00 aa 0b f9 0f fc ff    !????1?.?.?????.
10: f8 ff 11 00 94 bd ff 7f 00 00 0a 00 0a 00 46 0a    ?.?.??.?..?.?.F?
20: ca 0d 64 00 64 00 9c ff 0a 00 ff ff 18 fc 64 00    ??d.d.?.?...??d.
30: 00 00 50 fb 20 21 06 00 00 00 07 00 XX XX XX XX    ..P? !?...?.XXXX

Sun May 27 21:33:38 CEST 2012
     0  1  2  3  4  5  6  7  8  9  a  b  c  d  e  f    0123456789abcdef
00: 21 05 01 01 3f 31 e0 00 06 00 a9 0b f9 0f fa ff    !????1?.?.?????.
10: f8 ff 11 00 5d bc ff 7f 00 00 0a 00 0a 00 46 0a    ?.?.]?.?..?.?.F?
20: ca 0d 64 00 64 00 9c ff 0a 00 ff ff 18 fc 64 00    ??d.d.?.?...??d.
30: 00 00 50 fb 20 21 06 00 00 00 07 00 XX XX XX XX    ..P? !?...?.XXXX

Sun May 27 21:34:08 CEST 2012
     0  1  2  3  4  5  6  7  8  9  a  b  c  d  e  f    0123456789abcdef
00: 21 05 01 01 3f 31 e0 00 06 00 a9 0b f9 0f fc ff    !????1?.?.?????.
10: f7 ff 11 00 27 bb ff 7f 00 00 0a 00 0a 00 46 0a    ?.?.'?.?..?.?.F?
20: ca 0d 64 00 64 00 9c ff 0a 00 ff ff 18 fc 64 00    ??d.d.?.?...??d.
30: 00 00 50 fb 20 21 06 00 00 00 07 00 XX XX XX XX    ..P? !?...?.XXXX

Sun May 27 21:34:38 CEST 2012
     0  1  2  3  4  5  6  7  8  9  a  b  c  d  e  f    0123456789abcdef
00: 21 05 01 01 3f 31 e0 00 06 00 a9 0b f9 0f fc ff    !????1?.?.?????.
10: f7 ff 11 00 ae b9 ff 7f 00 00 0a 00 0a 00 46 0a    ?.?.??.?..?.?.F?
20: ca 0d 64 00 64 00 9c ff 0a 00 ff ff 18 fc 64 00    ??d.d.?.?...??d.
30: 00 00 50 fb 20 21 06 00 00 00 07 00 XX XX XX XX    ..P? !?...?.XXXX

Sun May 27 21:35:09 CEST 2012
     0  1  2  3  4  5  6  7  8  9  a  b  c  d  e  f    0123456789abcdef
00: 21 05 01 01 3f 31 e0 00 06 00 a9 0b f8 0f fc ff    !????1?.?.?????.
10: f5 ff 11 00 3a b8 ff 7f 00 00 0a 00 0a 00 46 0a    ?.?.:?.?..?.?.F?
20: ca 0d 64 00 64 00 9c ff 0a 00 ff ff 18 fc 64 00    ??d.d.?.?...??d.
30: 00 00 50 fb 20 21 06 00 00 00 07 00 XX XX XX XX    ..P? !?...?.XXXX

Sun May 27 21:35:39 CEST 2012
     0  1  2  3  4  5  6  7  8  9  a  b  c  d  e  f    0123456789abcdef
00: 21 05 01 01 3f 31 e0 00 06 00 a9 0b f8 0f fb ff    !????1?.?.?????.
10: f6 ff 11 00 01 b7 ff 7f 00 00 0a 00 0a 00 46 0a    ?.?.??.?..?.?.F?
20: ca 0d 64 00 64 00 9c ff 0a 00 ff ff 18 fc 64 00    ??d.d.?.?...??d.
30: 00 00 50 fb 20 21 06 00 00 00 07 00 XX XX XX XX    ..P? !?...?.XXXX

Sun May 27 21:36:09 CEST 2012
     0  1  2  3  4  5  6  7  8  9  a  b  c  d  e  f    0123456789abcdef
00: 21 05 01 01 3f 31 e0 00 06 00 a9 0b f9 0f fc ff    !????1?.?.?????.
10: f6 ff 11 00 c5 b5 ff 7f 00 00 0a 00 0a 00 46 0a    ?.?.??.?..?.?.F?
20: ca 0d 64 00 64 00 9c ff 0a 00 ff ff 18 fc 64 00    ??d.d.?.?...??d.
30: 00 00 50 fb 20 21 06 00 00 00 07 00 XX XX XX XX    ..P? !?...?.XXXX

Sun May 27 21:36:39 CEST 2012
     0  1  2  3  4  5  6  7  8  9  a  b  c  d  e  f    0123456789abcdef
00: 21 05 01 01 3f 31 e0 00 06 00 a9 0b f9 0f fd ff    !????1?.?.?????.
10: f5 ff 11 00 89 b4 ff 7f 00 00 0a 00 0a 00 46 0a    ?.?.??.?..?.?.F?
20: ca 0d 64 00 64 00 9c ff 0a 00 ff ff 18 fc 64 00    ??d.d.?.?...??d.
30: 00 00 50 fb 20 21 06 00 00 00 07 00 XX XX XX XX    ..P? !?...?.XXXX

Sun May 27 21:37:09 CEST 2012
     0  1  2  3  4  5  6  7  8  9  a  b  c  d  e  f    0123456789abcdef
00: 21 05 01 01 3f 31 e0 00 06 00 a9 0b f9 0f f8 ff    !????1?.?.?????.
10: f8 ff 11 00 4c b3 ff 7f 00 00 0a 00 0a 00 46 0a    ?.?.L?.?..?.?.F?
20: ca 0d 64 00 64 00 9c ff 0a 00 ff ff 18 fc 64 00    ??d.d.?.?...??d.
30: 00 00 50 fb 20 21 06 00 00 00 07 00 XX XX XX XX    ..P? !?...?.XXXX

Sun May 27 21:37:39 CEST 2012
     0  1  2  3  4  5  6  7  8  9  a  b  c  d  e  f    0123456789abcdef
00: 21 05 01 01 3f 31 e0 00 06 00 a8 0b f9 0f fb ff    !????1?.?.?????.
10: f7 ff 11 00 17 b2 ff 7f 00 00 0a 00 0a 00 46 0a    ?.?.??.?..?.?.F?
20: ca 0d 64 00 64 00 9c ff 0a 00 ff ff 18 fc 64 00    ??d.d.?.?...??d.
30: 00 00 50 fb 20 21 06 00 00 00 07 00 XX XX XX XX    ..P? !?...?.XXXX

Sun May 27 21:38:09 CEST 2012
     0  1  2  3  4  5  6  7  8  9  a  b  c  d  e  f    0123456789abcdef
00: 21 05 01 01 3f 31 e0 00 06 00 a8 0b f4 0f fa ff    !????1?.?.?????.
10: ed ff 11 00 d1 b0 ff 7f 00 00 0a 00 0a 00 46 0a    ?.?.??.?..?.?.F?
20: ca 0d 64 00 64 00 9c ff 0a 00 ff ff 18 fc 64 00    ??d.d.?.?...??d.
30: 00 00 50 fb 20 21 06 00 00 00 07 00 XX XX XX XX    ..P? !?...?.XXXX

Sun May 27 21:38:39 CEST 2012
     0  1  2  3  4  5  6  7  8  9  a  b  c  d  e  f    0123456789abcdef
00: 21 05 01 01 3f 31 e0 00 06 00 a8 0b f7 0f f2 ff    !????1?.?.?????.
10: f5 ff 11 00 91 af ff 7f 00 00 0a 00 0a 00 46 0a    ?.?.??.?..?.?.F?
20: ca 0d 64 00 64 00 9c ff 0a 00 ff ff 18 fc 64 00    ??d.d.?.?...??d.
30: 00 00 50 fb 20 21 06 00 00 00 07 00 XX XX XX XX    ..P? !?...?.XXXX

Sun May 27 21:39:09 CEST 2012
     0  1  2  3  4  5  6  7  8  9  a  b  c  d  e  f    0123456789abcdef
00: 21 05 01 01 3f 31 e0 00 06 00 a8 0b f4 0f fa ff    !????1?.?.?????.
10: f5 ff 11 00 5a ae ff 7f 00 00 0a 00 0a 00 46 0a    ?.?.Z?.?..?.?.F?
20: ca 0d 64 00 64 00 9c ff 0a 00 ff ff 18 fc 64 00    ??d.d.?.?...??d.
30: 00 00 50 fb 20 21 06 00 00 00 07 00 XX XX XX XX    ..P? !?...?.XXXX

Sun May 27 21:39:39 CEST 2012
     0  1  2  3  4  5  6  7  8  9  a  b  c  d  e  f    0123456789abcdef
00: 21 05 01 01 3f 31 e0 00 06 00 a8 0b f2 0f f8 ff    !????1?.?.?????.
10: f4 ff 11 00 f6 ac ff 7f 00 00 0a 00 0a 00 46 0a    ?.?.??.?..?.?.F?
20: ca 0d 64 00 64 00 9c ff 0a 00 ff ff 18 fc 64 00    ??d.d.?.?...??d.
30: 00 00 50 fb 20 21 06 00 00 00 07 00 XX XX XX XX    ..P? !?...?.XXXX

Sun May 27 21:40:10 CEST 2012
     0  1  2  3  4  5  6  7  8  9  a  b  c  d  e  f    0123456789abcdef
00: 21 05 01 01 3f 31 e0 00 06 00 a8 0b f7 0f fd ff    !????1?.?.?????.
10: f7 ff 11 00 ba ab ff 7f 00 00 0a 00 0a 00 46 0a    ?.?.??.?..?.?.F?
20: ca 0d 64 00 64 00 9c ff 0a 00 ff ff 18 fc 64 00    ??d.d.?.?...??d.
30: 00 00 50 fb 20 21 06 00 00 00 07 00 XX XX XX XX    ..P? !?...?.XXXX

Sun May 27 21:40:40 CEST 2012
     0  1  2  3  4  5  6  7  8  9  a  b  c  d  e  f    0123456789abcdef
00: 21 05 01 01 3f 31 e0 00 06 00 a8 0b f9 0f fa ff    !????1?.?.?????.
10: f7 ff 11 00 83 aa ff 7f 00 00 0a 00 0a 00 46 0a    ?.?.??.?..?.?.F?
20: ca 0d 64 00 64 00 9c ff 0a 00 ff ff 18 fc 64 00    ??d.d.?.?...??d.
30: 00 00 50 fb 20 21 06 00 00 00 07 00 XX XX XX XX    ..P? !?...?.XXXX

Sun May 27 21:41:10 CEST 2012
     0  1  2  3  4  5  6  7  8  9  a  b  c  d  e  f    0123456789abcdef
00: 21 05 01 01 3f 31 e0 00 06 00 a7 0b f6 0f f4 ff    !????1?.?.?????.
10: f4 ff 11 00 35 a9 ff 7f 00 00 0a 00 0a 00 46 0a    ?.?.5?.?..?.?.F?
20: ca 0d 64 00 64 00 9c ff 0a 00 ff ff 18 fc 64 00    ??d.d.?.?...??d.
30: 00 00 50 fb 20 21 06 00 00 00 07 00 XX XX XX XX    ..P? !?...?.XXXX

Sun May 27 21:41:40 CEST 2012
     0  1  2  3  4  5  6  7  8  9  a  b  c  d  e  f    0123456789abcdef
00: 21 05 01 01 3f 31 e0 00 06 00 a7 0b f8 0f fa ff    !????1?.?.?????.
10: f4 ff 11 00 fe a7 ff 7f 00 00 0a 00 0a 00 46 0a    ?.?.??.?..?.?.F?
20: ca 0d 64 00 64 00 9c ff 0a 00 ff ff 18 fc 64 00    ??d.d.?.?...??d.
30: 00 00 50 fb 20 21 06 00 00 00 07 00 XX XX XX XX    ..P? !?...?.XXXX

Sun May 27 21:42:10 CEST 2012
     0  1  2  3  4  5  6  7  8  9  a  b  c  d  e  f    0123456789abcdef
00: 21 05 01 01 3f 31 e0 00 06 00 a7 0b f6 0f f9 ff    !????1?.?.?????.
10: f5 ff 11 00 b8 a6 ff 7f 00 00 0a 00 0a 00 46 0a    ?.?.??.?..?.?.F?
20: ca 0d 64 00 64 00 9c ff 0a 00 ff ff 18 fc 64 00    ??d.d.?.?...??d.
30: 00 00 50 fb 20 21 06 00 00 00 07 00 XX XX XX XX    ..P? !?...?.XXXX

Sun May 27 21:42:40 CEST 2012
     0  1  2  3  4  5  6  7  8  9  a  b  c  d  e  f    0123456789abcdef
00: 21 05 01 01 3f 31 e0 00 06 00 a7 0b f1 0f f8 ff    !????1?.?.?????.
10: e2 ff 11 00 53 a5 ff 7f 00 00 0a 00 0a 00 46 0a    ?.?.S?.?..?.?.F?
20: ca 0d 64 00 64 00 9c ff 0a 00 ff ff 18 fc 64 00    ??d.d.?.?...??d.
30: 00 00 50 fb 20 21 06 00 00 00 07 00 XX XX XX XX    ..P? !?...?.XXXX

Sun May 27 21:43:10 CEST 2012
     0  1  2  3  4  5  6  7  8  9  a  b  c  d  e  f    0123456789abcdef
00: 21 05 01 01 3f 31 e0 00 06 00 a7 0b f8 0f fd ff    !????1?.?.?????.
10: f5 ff 11 00 13 a4 ff 7f 00 00 0a 00 0a 00 46 0a    ?.?.??.?..?.?.F?
20: ca 0d 64 00 64 00 9c ff 0a 00 ff ff 18 fc 64 00    ??d.d.?.?...??d.
30: 00 00 50 fb 20 21 06 00 00 00 07 00 XX XX XX XX    ..P? !?...?.XXXX

Sun May 27 21:43:40 CEST 2012
     0  1  2  3  4  5  6  7  8  9  a  b  c  d  e  f    0123456789abcdef
00: 21 05 01 01 3f 31 e0 00 06 00 a7 0b f8 0f f0 ff    !????1?.?.?????.
10: f6 ff 11 00 e4 a2 ff 7f 00 00 0a 00 0a 00 46 0a    ?.?.??.?..?.?.F?
20: ca 0d 64 00 64 00 9c ff 0a 00 ff ff 18 fc 64 00    ??d.d.?.?...??d.
30: 00 00 50 fb 20 21 06 00 00 00 07 00 XX XX XX XX    ..P? !?...?.XXXX

Sun May 27 21:44:10 CEST 2012
     0  1  2  3  4  5  6  7  8  9  a  b  c  d  e  f    0123456789abcdef
00: 21 05 01 01 3f 31 e0 00 06 00 a7 0b f8 0f f9 ff    !????1?.?.?????.
10: f7 ff 11 00 9d a1 ff 7f 00 00 0a 00 0a 00 46 0a    ?.?.??.?..?.?.F?
20: ca 0d 64 00 64 00 9c ff 0a 00 ff ff 18 fc 64 00    ??d.d.?.?...??d.
30: 00 00 50 fb 20 21 06 00 00 00 07 00 XX XX XX XX    ..P? !?...?.XXXX

Sun May 27 21:44:40 CEST 2012
     0  1  2  3  4  5  6  7  8  9  a  b  c  d  e  f    0123456789abcdef
00: 21 05 01 01 3f 31 e0 00 06 00 a7 0b f8 0f f8 ff    !????1?.?.?????.
10: f8 ff 11 00 36 a0 ff 7f 00 00 0a 00 0a 00 46 0a    ?.?.6?.?..?.?.F?
20: ca 0d 64 00 64 00 9c ff 0a 00 ff ff 18 fc 64 00    ??d.d.?.?...??d.
30: 00 00 50 fb 20 21 06 00 00 00 07 00 XX XX XX XX    ..P? !?...?.XXXX

Sun May 27 21:45:10 CEST 2012
     0  1  2  3  4  5  6  7  8  9  a  b  c  d  e  f    0123456789abcdef
00: 21 05 01 01 3f 31 e0 00 06 00 a6 0b f8 0f f5 ff    !????1?.?.?????.
10: f7 ff 11 00 f4 9e ff 7f 00 00 0a 00 0a 00 46 0a    ?.?.??.?..?.?.F?
20: ca 0d 64 00 64 00 9c ff 0a 00 ff ff 18 fc 64 00    ??d.d.?.?...??d.
30: 00 00 50 fb 20 21 06 00 00 00 07 00 XX XX XX XX    ..P? !?...?.XXXX

Sun May 27 21:45:41 CEST 2012
     0  1  2  3  4  5  6  7  8  9  a  b  c  d  e  f    0123456789abcdef
00: 21 05 01 01 3f 31 e0 00 06 00 a6 0b f7 0f ed ff    !????1?.?.?????.
10: f6 ff 11 00 bd 9d ff 7f 00 00 0a 00 0a 00 46 0a    ?.?.??.?..?.?.F?
20: ca 0d 64 00 64 00 9c ff 0a 00 ff ff 18 fc 64 00    ??d.d.?.?...??d.
30: 00 00 50 fb 20 21 06 00 00 00 07 00 XX XX XX XX    ..P? !?...?.XXXX

Sun May 27 21:46:11 CEST 2012
     0  1  2  3  4  5  6  7  8  9  a  b  c  d  e  f    0123456789abcdef
00: 21 05 01 01 3f 31 e0 00 06 00 a6 0b f8 0f f1 ff    !????1?.?.?????.
10: f7 ff 11 00 7e 9c ff 7f 00 00 0a 00 0a 00 46 0a    ?.?.~?.?..?.?.F?
20: ca 0d 64 00 64 00 9c ff 0a 00 ff ff 18 fc 64 00    ??d.d.?.?...??d.
30: 00 00 50 fb 20 21 06 00 00 00 07 00 XX XX XX XX    ..P? !?...?.XXXX

Sun May 27 21:46:41 CEST 2012
     0  1  2  3  4  5  6  7  8  9  a  b  c  d  e  f    0123456789abcdef
00: 21 05 01 01 3f 31 e0 00 06 00 a6 0b f7 0f f9 ff    !????1?.?.?????.
10: f8 ff 11 00 4e 9b ff 7f 00 00 0a 00 0a 00 46 0a    ?.?.N?.?..?.?.F?
20: ca 0d 64 00 64 00 9c ff 0a 00 ff ff 18 fc 64 00    ??d.d.?.?...??d.
30: 00 00 50 fb 20 21 06 00 00 00 07 00 XX XX XX XX    ..P? !?...?.XXXX

Sun May 27 21:47:11 CEST 2012
     0  1  2  3  4  5  6  7  8  9  a  b  c  d  e  f    0123456789abcdef
00: 21 05 01 01 3f 31 e0 00 06 00 a6 0b f7 0f f7 ff    !????1?.?.?????.
10: f7 ff 11 00 10 9a ff 7f 00 00 0a 00 0a 00 46 0a    ?.?.??.?..?.?.F?
20: ca 0d 64 00 64 00 9c ff 0a 00 ff ff 18 fc 64 00    ??d.d.?.?...??d.
30: 00 00 50 fb 20 21 06 00 00 00 07 00 XX XX XX XX    ..P? !?...?.XXXX

Sun May 27 21:47:41 CEST 2012
     0  1  2  3  4  5  6  7  8  9  a  b  c  d  e  f    0123456789abcdef
00: 21 05 01 01 3f 31 e0 00 06 00 a6 0b f7 0f e6 ff    !????1?.?.?????.
10: f8 ff 11 00 c6 98 ff 7f 00 00 0a 00 0a 00 46 0a    ?.?.??.?..?.?.F?
20: ca 0d 64 00 64 00 9c ff 0a 00 ff ff 18 fc 64 00    ??d.d.?.?...??d.
30: 00 00 50 fb 20 21 06 00 00 00 07 00 XX XX XX XX    ..P? !?...?.XXXX

Sun May 27 21:48:11 CEST 2012
     0  1  2  3  4  5  6  7  8  9  a  b  c  d  e  f    0123456789abcdef
00: 21 05 01 01 3f 31 e0 00 06 00 a6 0b f7 0f f9 ff    !????1?.?.?????.
10: f9 ff 11 00 8c 97 ff 7f 00 00 0a 00 0a 00 46 0a    ?.?.??.?..?.?.F?
20: ca 0d 64 00 64 00 9c ff 0a 00 ff ff 18 fc 64 00    ??d.d.?.?...??d.
30: 00 00 50 fb 20 21 06 00 00 00 07 00 XX XX XX XX    ..P? !?...?.XXXX

Sun May 27 21:48:41 CEST 2012
     0  1  2  3  4  5  6  7  8  9  a  b  c  d  e  f    0123456789abcdef
00: 21 05 01 01 3f 31 e0 00 06 00 a6 0b f5 0f fc ff    !????1?.?.?????.
10: f3 ff 11 00 45 96 ff 7f 00 00 0a 00 0a 00 46 0a    ?.?.E?.?..?.?.F?
20: ca 0d 64 00 64 00 9c ff 0a 00 ff ff 18 fc 64 00    ??d.d.?.?...??d.
30: 00 00 50 fb 20 21 06 00 00 00 07 00 XX XX XX XX    ..P? !?...?.XXXX

Sun May 27 21:49:11 CEST 2012
     0  1  2  3  4  5  6  7  8  9  a  b  c  d  e  f    0123456789abcdef
00: 21 05 01 01 3f 31 e0 00 06 00 a6 0b f7 0f f8 ff    !????1?.?.?????.
10: f7 ff 11 00 10 95 ff 7f 00 00 0a 00 0a 00 46 0a    ?.?.??.?..?.?.F?
20: ca 0d 64 00 64 00 9c ff 0a 00 ff ff 18 fc 64 00    ??d.d.?.?...??d.
30: 00 00 50 fb 20 21 06 00 00 00 07 00 XX XX XX XX    ..P? !?...?.XXXX

Sun May 27 21:49:41 CEST 2012
     0  1  2  3  4  5  6  7  8  9  a  b  c  d  e  f    0123456789abcdef
00: 21 05 01 01 3f 31 e0 00 06 00 a6 0b f5 0f fb ff    !????1?.?.?????.
10: f7 ff 11 00 b3 93 ff 7f 00 00 0a 00 0a 00 46 0a    ?.?.??.?..?.?.F?
20: ca 0d 64 00 64 00 9c ff 0a 00 ff ff 18 fc 64 00    ??d.d.?.?...??d.
30: 00 00 50 fb 20 21 06 00 00 00 07 00 XX XX XX XX    ..P? !?...?.XXXX

Sun May 27 21:50:11 CEST 2012
     0  1  2  3  4  5  6  7  8  9  a  b  c  d  e  f    0123456789abcdef
00: 21 05 01 01 3f 31 e0 00 06 00 a5 0b f4 0f fb ff    !????1?.?.?????.
10: f7 ff 11 00 6a 92 ff 7f 00 00 0a 00 0a 00 46 0a    ?.?.j?.?..?.?.F?
20: ca 0d 64 00 64 00 9c ff 0a 00 ff ff 18 fc 64 00    ??d.d.?.?...??d.
30: 00 00 50 fb 20 21 06 00 00 00 07 00 XX XX XX XX    ..P? !?...?.XXXX

Sun May 27 21:50:42 CEST 2012
     0  1  2  3  4  5  6  7  8  9  a  b  c  d  e  f    0123456789abcdef
00: 21 05 01 01 3f 31 e0 00 06 00 a5 0b f6 0f fb ff    !????1?.?.?????.
10: f8 ff 11 00 34 91 ff 7f 00 00 0a 00 0a 00 46 0a    ?.?.4?.?..?.?.F?
20: ca 0d 64 00 64 00 9c ff 0a 00 ff ff 18 fc 64 00    ??d.d.?.?...??d.
30: 00 00 50 fb 20 21 06 00 00 00 07 00 XX XX XX XX    ..P? !?...?.XXXX

Sun May 27 21:51:12 CEST 2012
     0  1  2  3  4  5  6  7  8  9  a  b  c  d  e  f    0123456789abcdef
00: 21 05 01 01 3f 31 e0 00 06 00 a5 0b f6 0f f8 ff    !????1?.?.?????.
10: f5 ff 11 00 f4 8f ff 7f 00 00 0a 00 0a 00 46 0a    ?.?.??.?..?.?.F?
20: ca 0d 64 00 64 00 9c ff 0a 00 ff ff 18 fc 64 00    ??d.d.?.?...??d.
30: 00 00 50 fb 20 21 06 00 00 00 07 00 XX XX XX XX    ..P? !?...?.XXXX

Sun May 27 21:51:42 CEST 2012
     0  1  2  3  4  5  6  7  8  9  a  b  c  d  e  f    0123456789abcdef
00: 21 05 01 01 3f 31 e0 00 06 00 a5 0b f7 0f fc ff    !????1?.?.?????.
10: f6 ff 11 00 bf 8e ff 7f 00 00 0a 00 0a 00 46 0a    ?.?.??.?..?.?.F?
20: ca 0d 64 00 64 00 9c ff 0a 00 ff ff 18 fc 64 00    ??d.d.?.?...??d.
30: 00 00 50 fb 20 21 06 00 00 00 07 00 XX XX XX XX    ..P? !?...?.XXXX

Sun May 27 21:52:12 CEST 2012
     0  1  2  3  4  5  6  7  8  9  a  b  c  d  e  f    0123456789abcdef
00: 21 05 01 01 3f 31 e0 00 06 00 a5 0b f5 0f fd ff    !????1?.?.?????.
10: f8 ff 11 00 78 8d ff 7f 00 00 0a 00 0a 00 46 0a    ?.?.x?.?..?.?.F?
20: ca 0d 64 00 64 00 9c ff 0a 00 ff ff 18 fc 64 00    ??d.d.?.?...??d.
30: 00 00 50 fb 20 21 06 00 00 00 07 00 XX XX XX XX    ..P? !?...?.XXXX

Sun May 27 21:52:42 CEST 2012
     0  1  2  3  4  5  6  7  8  9  a  b  c  d  e  f    0123456789abcdef
00: 21 05 01 01 3f 31 e0 00 06 00 a5 0b f6 0f f0 ff    !????1?.?.?????.
10: f6 ff 11 00 3c 8c ff 7f 00 00 0a 00 0a 00 46 0a    ?.?.<?.?..?.?.F?
20: ca 0d 64 00 64 00 9c ff 0a 00 ff ff 18 fc 64 00    ??d.d.?.?...??d.
30: 00 00 50 fb 20 21 06 00 00 00 07 00 XX XX XX XX    ..P? !?...?.XXXX

Sun May 27 21:53:12 CEST 2012
     0  1  2  3  4  5  6  7  8  9  a  b  c  d  e  f    0123456789abcdef
00: 21 05 01 01 3f 31 e0 00 06 00 a5 0b f6 0f fd ff    !????1?.?.?????.
10: f7 ff 11 00 07 8b ff 7f 00 00 0a 00 0a 00 46 0a    ?.?.??.?..?.?.F?
20: ca 0d 64 00 64 00 9c ff 0a 00 ff ff 18 fc 64 00    ??d.d.?.?...??d.
30: 00 00 50 fb 20 21 06 00 00 00 07 00 XX XX XX XX    ..P? !?...?.XXXX

Sun May 27 21:53:42 CEST 2012
     0  1  2  3  4  5  6  7  8  9  a  b  c  d  e  f    0123456789abcdef
00: 21 05 01 01 3f 31 e0 00 06 00 a5 0b f6 0f fd ff    !????1?.?.?????.
10: f7 ff 11 00 c7 89 ff 7f 00 00 0a 00 0a 00 46 0a    ?.?.??.?..?.?.F?
20: ca 0d 64 00 64 00 9c ff 0a 00 ff ff 18 fc 64 00    ??d.d.?.?...??d.
30: 00 00 50 fb 20 21 06 00 00 00 07 00 XX XX XX XX    ..P? !?...?.XXXX

Sun May 27 21:54:12 CEST 2012
     0  1  2  3  4  5  6  7  8  9  a  b  c  d  e  f    0123456789abcdef
00: 21 05 01 01 3f 31 e0 00 06 00 a5 0b f5 0f f7 ff    !????1?.?.?????.
10: f7 ff 11 00 86 88 ff 7f 00 00 0a 00 0a 00 46 0a    ?.?.??.?..?.?.F?
20: ca 0d 64 00 64 00 9c ff 0a 00 ff ff 18 fc 64 00    ??d.d.?.?...??d.
30: 00 00 50 fb 20 21 06 00 00 00 07 00 XX XX XX XX    ..P? !?...?.XXXX

Sun May 27 21:54:42 CEST 2012
     0  1  2  3  4  5  6  7  8  9  a  b  c  d  e  f    0123456789abcdef
00: 21 05 01 01 3f 31 e0 00 06 00 a5 0b f5 0f f8 ff    !????1?.?.?????.
10: f7 ff 11 00 1a 87 ff 7f 00 00 0a 00 0a 00 46 0a    ?.?.??.?..?.?.F?
20: ca 0d 64 00 64 00 9c ff 0a 00 ff ff 18 fc 64 00    ??d.d.?.?...??d.
30: 00 00 50 fb 20 21 06 00 00 00 07 00 XX XX XX XX    ..P? !?...?.XXXX

Sun May 27 21:55:12 CEST 2012
     0  1  2  3  4  5  6  7  8  9  a  b  c  d  e  f    0123456789abcdef
00: 21 05 01 01 3f 31 e0 00 06 00 a4 0b f5 0f f7 ff    !????1?.?.?????.
10: f7 ff 11 00 d8 85 ff 7f 00 00 0a 00 0a 00 46 0a    ?.?.??.?..?.?.F?
20: ca 0d 64 00 64 00 9c ff 0a 00 ff ff 18 fc 64 00    ??d.d.?.?...??d.
30: 00 00 50 fb 20 21 06 00 00 00 07 00 XX XX XX XX    ..P? !?...?.XXXX

Sun May 27 21:55:43 CEST 2012
     0  1  2  3  4  5  6  7  8  9  a  b  c  d  e  f    0123456789abcdef
00: 21 05 01 01 3f 31 e0 00 06 00 a4 0b f6 0f fb ff    !????1?.?.?????.
10: f6 ff 11 00 a5 84 ff 7f 00 00 0a 00 0a 00 46 0a    ?.?.??.?..?.?.F?
20: ca 0d 64 00 64 00 9c ff 0a 00 ff ff 18 fc 64 00    ??d.d.?.?...??d.
30: 00 00 50 fb 20 21 06 00 00 00 07 00 XX XX XX XX    ..P? !?...?.XXXX

Sun May 27 21:56:13 CEST 2012
     0  1  2  3  4  5  6  7  8  9  a  b  c  d  e  f    0123456789abcdef
00: 21 05 01 01 3f 31 e0 00 06 00 a4 0b f5 0f e1 ff    !????1?.?.?????.
10: f7 ff 11 00 68 83 ff 7f 00 00 0a 00 0a 00 46 0a    ?.?.h?.?..?.?.F?
20: ca 0d 64 00 64 00 9c ff 0a 00 ff ff 18 fc 64 00    ??d.d.?.?...??d.
30: 00 00 50 fb 20 21 06 00 00 00 07 00 XX XX XX XX    ..P? !?...?.XXXX

Sun May 27 21:56:43 CEST 2012
     0  1  2  3  4  5  6  7  8  9  a  b  c  d  e  f    0123456789abcdef
00: 21 05 01 01 3f 31 e0 00 06 00 a4 0b f6 0f e1 ff    !????1?.?.?????.
10: f8 ff 11 00 32 82 ff 7f 00 00 0a 00 0a 00 46 0a    ?.?.2?.?..?.?.F?
20: ca 0d 64 00 64 00 9c ff 0a 00 ff ff 18 fc 64 00    ??d.d.?.?...??d.
30: 00 00 50 fb 20 21 06 00 00 00 07 00 XX XX XX XX    ..P? !?...?.XXXX

Sun May 27 21:57:13 CEST 2012
     0  1  2  3  4  5  6  7  8  9  a  b  c  d  e  f    0123456789abcdef
00: 21 05 01 01 3f 31 e0 00 06 00 a4 0b f5 0f f6 ff    !????1?.?.?????.
10: f8 ff 11 00 d3 80 ff 7f 00 00 0a 00 0a 00 46 0a    ?.?.??.?..?.?.F?
20: ca 0d 64 00 64 00 9c ff 0a 00 ff ff 18 fc 64 00    ??d.d.?.?...??d.
30: 00 00 50 fb 20 21 06 00 00 00 07 00 XX XX XX XX    ..P? !?...?.XXXX

Sun May 27 21:57:43 CEST 2012
     0  1  2  3  4  5  6  7  8  9  a  b  c  d  e  f    0123456789abcdef
00: 21 05 01 01 3f 31 e0 00 06 00 a4 0b f2 0f fa ff    !????1?.?.?????.
10: f9 ff 11 00 76 7f ff 7f 00 00 0a 00 0a 00 46 0a    ?.?.v?.?..?.?.F?
20: ca 0d 64 00 64 00 9c ff 0a 00 ff ff 18 fc 64 00    ??d.d.?.?...??d.
30: 00 00 50 fb 20 21 06 00 00 00 07 00 XX XX XX XX    ..P? !?...?.XXXX

Sun May 27 21:58:13 CEST 2012
     0  1  2  3  4  5  6  7  8  9  a  b  c  d  e  f    0123456789abcdef
00: 21 05 01 01 3f 31 e0 00 06 00 a4 0b f6 0f fa ff    !????1?.?.?????.
10: f7 ff 11 00 34 7e ff 7f 00 00 0a 00 0a 00 46 0a    ?.?.4~.?..?.?.F?
20: ca 0d 64 00 64 00 9c ff 0a 00 ff ff 18 fc 64 00    ??d.d.?.?...??d.
30: 00 00 50 fb 20 21 06 00 00 00 07 00 XX XX XX XX    ..P? !?...?.XXXX

Sun May 27 21:58:43 CEST 2012
     0  1  2  3  4  5  6  7  8  9  a  b  c  d  e  f    0123456789abcdef
00: 21 05 01 01 3f 31 e0 00 06 00 a4 0b f6 0f fa ff    !????1?.?.?????.
10: f7 ff 11 00 dd 7c ff 7f 00 00 0a 00 0a 00 46 0a    ?.?.?|.?..?.?.F?
20: ca 0d 64 00 64 00 9c ff 0a 00 ff ff 18 fc 64 00    ??d.d.?.?...??d.
30: 00 00 50 fb 20 21 06 00 00 00 07 00 XX XX XX XX    ..P? !?...?.XXXX

Sun May 27 21:59:13 CEST 2012
     0  1  2  3  4  5  6  7  8  9  a  b  c  d  e  f    0123456789abcdef
00: 21 05 01 01 3f 31 e0 00 06 00 a4 0b f4 0f f8 ff    !????1?.?.?????.
10: f7 ff 11 00 9f 7b ff 7f 00 00 0a 00 0a 00 46 0a    ?.?.?{.?..?.?.F?
20: ca 0d 64 00 64 00 9c ff 0a 00 ff ff 18 fc 64 00    ??d.d.?.?...??d.
30: 00 00 50 fb 20 21 06 00 00 00 07 00 XX XX XX XX    ..P? !?...?.XXXX

Sun May 27 21:59:43 CEST 2012
     0  1  2  3  4  5  6  7  8  9  a  b  c  d  e  f    0123456789abcdef
00: 21 05 01 01 3f 31 e0 00 06 00 a4 0b f4 0f fc ff    !????1?.?.?????.
10: f5 ff 11 00 37 7a ff 7f 00 00 0a 00 0a 00 46 0a    ?.?.7z.?..?.?.F?
20: ca 0d 64 00 64 00 9c ff 0a 00 ff ff 18 fc 64 00    ??d.d.?.?...??d.
30: 00 00 50 fb 20 21 06 00 00 00 07 00 XX XX XX XX    ..P? !?...?.XXXX

Sun May 27 22:00:13 CEST 2012
     0  1  2  3  4  5  6  7  8  9  a  b  c  d  e  f    0123456789abcdef
00: 21 05 01 01 3f 31 e0 00 06 00 a4 0b ef 0f f9 ff    !????1?.?.?????.
10: f7 ff 11 00 fa 78 ff 7f 00 00 0a 00 0a 00 46 0a    ?.?.?x.?..?.?.F?
20: ca 0d 64 00 64 00 9c ff 0a 00 ff ff 18 fc 64 00    ??d.d.?.?...??d.
30: 00 00 50 fb 20 21 06 00 00 00 07 00 XX XX XX XX    ..P? !?...?.XXXX

Sun May 27 22:00:43 CEST 2012
     0  1  2  3  4  5  6  7  8  9  a  b  c  d  e  f    0123456789abcdef
00: 21 05 01 01 3f 31 e0 00 06 00 a4 0b f5 0f f7 ff    !????1?.?.?????.
10: f6 ff 11 00 bb 77 ff 7f 00 00 0a 00 0a 00 46 0a    ?.?.?w.?..?.?.F?
20: ca 0d 64 00 64 00 9c ff 0a 00 ff ff 18 fc 64 00    ??d.d.?.?...??d.
30: 00 00 50 fb 20 21 06 00 00 00 07 00 XX XX XX XX    ..P? !?...?.XXXX

Sun May 27 22:01:14 CEST 2012
     0  1  2  3  4  5  6  7  8  9  a  b  c  d  e  f    0123456789abcdef
00: 21 05 01 01 3f 31 e0 00 06 00 a3 0b f4 0f f3 ff    !????1?.?.?????.
10: f7 ff 11 00 7b 76 ff 7f 00 00 0a 00 0a 00 46 0a    ?.?.{v.?..?.?.F?
20: ca 0d 64 00 64 00 9c ff 0a 00 ff ff 18 fc 64 00    ??d.d.?.?...??d.
30: 00 00 50 fb 20 21 06 00 00 00 07 00 XX XX XX XX    ..P? !?...?.XXXX

Sun May 27 22:01:44 CEST 2012
     0  1  2  3  4  5  6  7  8  9  a  b  c  d  e  f    0123456789abcdef
00: 21 05 01 01 3f 31 e0 00 06 00 a3 0b f5 0f e9 ff    !????1?.?.?????.
10: f7 ff 11 00 38 75 ff 7f 00 00 0a 00 0a 00 46 0a    ?.?.8u.?..?.?.F?
20: ca 0d 64 00 64 00 9c ff 0a 00 ff ff 18 fc 64 00    ??d.d.?.?...??d.
30: 00 00 50 fb 20 21 06 00 00 00 07 00 XX XX XX XX    ..P? !?...?.XXXX

Sun May 27 22:02:14 CEST 2012
     0  1  2  3  4  5  6  7  8  9  a  b  c  d  e  f    0123456789abcdef
00: 21 05 01 01 3f 31 e0 00 06 00 a3 0b f4 0f fc ff    !????1?.?.?????.
10: f7 ff 11 00 f0 73 ff 7f 00 00 0a 00 0a 00 46 0a    ?.?.?s.?..?.?.F?
20: ca 0d 64 00 64 00 9c ff 0a 00 ff ff 18 fc 64 00    ??d.d.?.?...??d.
30: 00 00 50 fb 20 21 06 00 00 00 07 00 XX XX XX XX    ..P? !?...?.XXXX

Sun May 27 22:02:44 CEST 2012
     0  1  2  3  4  5  6  7  8  9  a  b  c  d  e  f    0123456789abcdef
00: 21 05 01 01 3f 31 e0 00 06 00 a3 0b f4 0f fd ff    !????1?.?.?????.
10: f8 ff 11 00 bb 72 ff 7f 00 00 0a 00 0a 00 46 0a    ?.?.?r.?..?.?.F?
20: ca 0d 64 00 64 00 9c ff 0a 00 ff ff 18 fc 64 00    ??d.d.?.?...??d.
30: 00 00 50 fb 20 21 06 00 00 00 07 00 XX XX XX XX    ..P? !?...?.XXXX

Sun May 27 22:03:14 CEST 2012
     0  1  2  3  4  5  6  7  8  9  a  b  c  d  e  f    0123456789abcdef
00: 21 05 01 01 3f 31 e0 00 06 00 a3 0b f3 0f fb ff    !????1?.?.?????.
10: f8 ff 11 00 72 71 ff 7f 00 00 0a 00 0a 00 46 0a    ?.?.rq.?..?.?.F?
20: ca 0d 64 00 64 00 9c ff 0a 00 ff ff 18 fc 64 00    ??d.d.?.?...??d.
30: 00 00 50 fb 20 21 06 00 00 00 07 00 XX XX XX XX    ..P? !?...?.XXXX

Sun May 27 22:03:44 CEST 2012
     0  1  2  3  4  5  6  7  8  9  a  b  c  d  e  f    0123456789abcdef
00: 21 05 01 01 3f 31 e0 00 06 00 a3 0b f4 0f fb ff    !????1?.?.?????.
10: f6 ff 11 00 2a 70 ff 7f 00 00 0a 00 0a 00 46 0a    ?.?.*p.?..?.?.F?
20: ca 0d 64 00 64 00 9c ff 0a 00 ff ff 18 fc 64 00    ??d.d.?.?...??d.
30: 00 00 50 fb 20 21 06 00 00 00 07 00 XX XX XX XX    ..P? !?...?.XXXX

Sun May 27 22:04:14 CEST 2012
     0  1  2  3  4  5  6  7  8  9  a  b  c  d  e  f    0123456789abcdef
00: 21 05 01 01 3f 31 e0 00 06 00 a3 0b f4 0f fa ff    !????1?.?.?????.
10: f6 ff 11 00 e8 6e ff 7f 00 00 0a 00 0a 00 46 0a    ?.?.?n.?..?.?.F?
20: ca 0d 64 00 64 00 9c ff 0a 00 ff ff 18 fc 64 00    ??d.d.?.?...??d.
30: 00 00 50 fb 20 21 06 00 00 00 07 00 XX XX XX XX    ..P? !?...?.XXXX

Sun May 27 22:04:44 CEST 2012
     0  1  2  3  4  5  6  7  8  9  a  b  c  d  e  f    0123456789abcdef
00: 21 05 01 01 3f 31 e0 00 06 00 a3 0b f5 0f f9 ff    !????1?.?.?????.
10: f7 ff 11 00 7e 6d ff 7f 00 00 0a 00 0a 00 46 0a    ?.?.~m.?..?.?.F?
20: ca 0d 64 00 64 00 9c ff 0a 00 ff ff 18 fc 64 00    ??d.d.?.?...??d.
30: 00 00 50 fb 20 21 06 00 00 00 07 00 XX XX XX XX    ..P? !?...?.XXXX

Sun May 27 22:05:14 CEST 2012
     0  1  2  3  4  5  6  7  8  9  a  b  c  d  e  f    0123456789abcdef
00: 21 05 01 01 3f 31 e0 00 06 00 a3 0b f4 0f fa ff    !????1?.?.?????.
10: f7 ff 11 00 02 6c ff 7f 00 00 0a 00 0a 00 46 0a    ?.?.?l.?..?.?.F?
20: ca 0d 64 00 64 00 9c ff 0a 00 ff ff 18 fc 64 00    ??d.d.?.?...??d.
30: 00 00 50 fb 20 21 06 00 00 00 07 00 XX XX XX XX    ..P? !?...?.XXXX

Sun May 27 22:05:44 CEST 2012
     0  1  2  3  4  5  6  7  8  9  a  b  c  d  e  f    0123456789abcdef
00: 21 05 01 01 3f 31 e0 00 06 00 a3 0b f4 0f f5 ff    !????1?.?.?????.
10: f7 ff 11 00 c8 6a ff 7f 00 00 0a 00 0a 00 46 0a    ?.?.?j.?..?.?.F?
20: ca 0d 64 00 64 00 9c ff 0a 00 ff ff 18 fc 64 00    ??d.d.?.?...??d.
30: 00 00 50 fb 20 21 06 00 00 00 07 00 XX XX XX XX    ..P? !?...?.XXXX

Sun May 27 22:06:15 CEST 2012
     0  1  2  3  4  5  6  7  8  9  a  b  c  d  e  f    0123456789abcdef
00: 21 05 01 01 3f 31 e0 00 06 00 a3 0b f2 0f fa ff    !????1?.?.?????.
10: f8 ff 11 00 8f 69 ff 7f 00 00 0a 00 0a 00 46 0a    ?.?.?i.?..?.?.F?
20: ca 0d 64 00 64 00 9c ff 0a 00 ff ff 18 fc 64 00    ??d.d.?.?...??d.
30: 00 00 50 fb 20 21 06 00 00 00 07 00 XX XX XX XX    ..P? !?...?.XXXX

Sun May 27 22:06:45 CEST 2012
     0  1  2  3  4  5  6  7  8  9  a  b  c  d  e  f    0123456789abcdef
00: 21 05 01 01 3f 31 e0 00 06 00 a3 0b f0 0f fb ff    !????1?.?.?????.
10: f7 ff 11 00 54 68 ff 7f 00 00 0a 00 0a 00 46 0a    ?.?.Th.?..?.?.F?
20: ca 0d 64 00 64 00 9c ff 0a 00 ff ff 18 fc 64 00    ??d.d.?.?...??d.
30: 00 00 50 fb 20 21 06 00 00 00 07 00 XX XX XX XX    ..P? !?...?.XXXX

Sun May 27 22:07:15 CEST 2012
     0  1  2  3  4  5  6  7  8  9  a  b  c  d  e  f    0123456789abcdef
00: 21 05 01 01 3f 31 e0 00 06 00 a3 0b f3 0f f2 ff    !????1?.?.?????.
10: f5 ff 11 00 0f 67 ff 7f 00 00 0a 00 0a 00 46 0a    ?.?.?g.?..?.?.F?
20: ca 0d 64 00 64 00 9c ff 0a 00 ff ff 18 fc 64 00    ??d.d.?.?...??d.
30: 00 00 50 fb 20 21 06 00 00 00 07 00 XX XX XX XX    ..P? !?...?.XXXX

Sun May 27 22:07:45 CEST 2012
     0  1  2  3  4  5  6  7  8  9  a  b  c  d  e  f    0123456789abcdef
00: 21 05 01 01 3f 31 e0 00 06 00 a3 0b f4 0f f7 ff    !????1?.?.?????.
10: f5 ff 11 00 d0 65 ff 7f 00 00 0a 00 0a 00 46 0a    ?.?.?e.?..?.?.F?
20: ca 0d 64 00 64 00 9c ff 0a 00 ff ff 18 fc 64 00    ??d.d.?.?...??d.
30: 00 00 50 fb 20 21 06 00 00 00 07 00 XX XX XX XX    ..P? !?...?.XXXX

Sun May 27 22:08:15 CEST 2012
     0  1  2  3  4  5  6  7  8  9  a  b  c  d  e  f    0123456789abcdef
00: 21 05 01 01 3f 31 e0 00 06 00 a3 0b f3 0f fc ff    !????1?.?.?????.
10: f5 ff 11 00 9b 64 ff 7f 00 00 0a 00 0a 00 46 0a    ?.?.?d.?..?.?.F?
20: ca 0d 64 00 64 00 9c ff 0a 00 ff ff 18 fc 64 00    ??d.d.?.?...??d.
30: 00 00 50 fb 20 21 06 00 00 00 07 00 XX XX XX XX    ..P? !?...?.XXXX

Sun May 27 22:08:45 CEST 2012
     0  1  2  3  4  5  6  7  8  9  a  b  c  d  e  f    0123456789abcdef
00: 21 05 01 01 3f 31 e0 00 06 00 a3 0b f4 0f f7 ff    !????1?.?.?????.
10: f2 ff 11 00 63 63 ff 7f 00 00 0a 00 0a 00 46 0a    ?.?.cc.?..?.?.F?
20: ca 0d 64 00 64 00 9c ff 0a 00 ff ff 18 fc 64 00    ??d.d.?.?...??d.
30: 00 00 50 fb 20 21 06 00 00 00 07 00 XX XX XX XX    ..P? !?...?.XXXX

Sun May 27 22:09:15 CEST 2012
     0  1  2  3  4  5  6  7  8  9  a  b  c  d  e  f    0123456789abcdef
00: 21 05 01 01 3f 31 e0 00 06 00 a3 0b f3 0f e0 ff    !????1?.?.?????.
10: f4 ff 11 00 23 62 ff 7f 00 00 0a 00 0a 00 46 0a    ?.?.#b.?..?.?.F?
20: ca 0d 64 00 64 00 9c ff 0a 00 ff ff 18 fc 64 00    ??d.d.?.?...??d.
30: 00 00 50 fb 20 21 06 00 00 00 07 00 XX XX XX XX    ..P? !?...?.XXXX

Sun May 27 22:09:45 CEST 2012
     0  1  2  3  4  5  6  7  8  9  a  b  c  d  e  f    0123456789abcdef
00: 21 05 01 01 3f 31 e0 00 06 00 a3 0b f2 0f f4 ff    !????1?.?.?????.
10: f1 ff 11 00 b8 60 ff 7f 00 00 0a 00 0a 00 46 0a    ?.?.?`.?..?.?.F?
20: ca 0d 64 00 64 00 9c ff 0a 00 ff ff 18 fc 64 00    ??d.d.?.?...??d.
30: 00 00 50 fb 20 21 06 00 00 00 07 00 XX XX XX XX    ..P? !?...?.XXXX

Sun May 27 22:10:15 CEST 2012
     0  1  2  3  4  5  6  7  8  9  a  b  c  d  e  f    0123456789abcdef
00: 21 05 01 01 3f 31 e0 00 06 00 a3 0b ef 0f f6 ff    !????1?.?.?????.
10: f9 ff 11 00 86 5f ff 7f 00 00 0a 00 0a 00 46 0a    ?.?.?_.?..?.?.F?
20: ca 0d 64 00 64 00 9c ff 0a 00 ff ff 18 fc 64 00    ??d.d.?.?...??d.
30: 00 00 50 fb 20 21 06 00 00 00 07 00 XX XX XX XX    ..P? !?...?.XXXX

Sun May 27 22:10:45 CEST 2012
     0  1  2  3  4  5  6  7  8  9  a  b  c  d  e  f    0123456789abcdef
00: 21 05 01 01 3f 31 e0 00 06 00 a2 0b f3 0f fa ff    !????1?.?.?????.
10: f7 ff 11 00 4b 5e ff 7f 00 00 0a 00 0a 00 46 0a    ?.?.K^.?..?.?.F?
20: ca 0d 64 00 64 00 9c ff 0a 00 ff ff 18 fc 64 00    ??d.d.?.?...??d.
30: 00 00 50 fb 20 21 06 00 00 00 07 00 XX XX XX XX    ..P? !?...?.XXXX

Sun May 27 22:11:16 CEST 2012
     0  1  2  3  4  5  6  7  8  9  a  b  c  d  e  f    0123456789abcdef
00: 21 05 01 01 3f 31 e0 00 06 00 a2 0b f3 0f f7 ff    !????1?.?.?????.
10: f6 ff 11 00 0c 5d ff 7f 00 00 0a 00 0a 00 46 0a    ?.?.?].?..?.?.F?
20: ca 0d 64 00 64 00 9c ff 0a 00 ff ff 18 fc 64 00    ??d.d.?.?...??d.
30: 00 00 50 fb 20 21 06 00 00 00 07 00 XX XX XX XX    ..P? !?...?.XXXX

Sun May 27 22:11:46 CEST 2012
     0  1  2  3  4  5  6  7  8  9  a  b  c  d  e  f    0123456789abcdef
00: 21 05 01 01 3f 31 e0 00 06 00 a2 0b f2 0f f8 ff    !????1?.?.?????.
10: f5 ff 11 00 dc 5b ff 7f 00 00 0a 00 0a 00 46 0a    ?.?.?[.?..?.?.F?
20: ca 0d 64 00 64 00 9c ff 0a 00 ff ff 18 fc 64 00    ??d.d.?.?...??d.
30: 00 00 50 fb 20 21 06 00 00 00 07 00 XX XX XX XX    ..P? !?...?.XXXX

Sun May 27 22:12:16 CEST 2012
     0  1  2  3  4  5  6  7  8  9  a  b  c  d  e  f    0123456789abcdef
00: 21 05 01 01 3f 31 e0 00 06 00 a2 0b eb 0f f9 ff    !????1?.?.?????.
10: f7 ff 11 00 ac 5a ff 7f 00 00 0a 00 0a 00 46 0a    ?.?.?Z.?..?.?.F?
20: ca 0d 64 00 64 00 9c ff 0a 00 ff ff 18 fc 64 00    ??d.d.?.?...??d.
30: 00 00 50 fb 20 21 06 00 00 00 07 00 XX XX XX XX    ..P? !?...?.XXXX

Sun May 27 22:12:46 CEST 2012
     0  1  2  3  4  5  6  7  8  9  a  b  c  d  e  f    0123456789abcdef
00: 21 05 01 01 3f 31 e0 00 06 00 a2 0b f0 0f f7 ff    !????1?.?.?????.
10: f6 ff 11 00 5a 59 ff 7f 00 00 0a 00 0a 00 46 0a    ?.?.ZY.?..?.?.F?
20: ca 0d 64 00 64 00 9c ff 0a 00 ff ff 18 fc 64 00    ??d.d.?.?...??d.
30: 00 00 50 fb 20 21 06 00 00 00 07 00 XX XX XX XX    ..P? !?...?.XXXX

Sun May 27 22:13:16 CEST 2012
     0  1  2  3  4  5  6  7  8  9  a  b  c  d  e  f    0123456789abcdef
00: 21 05 01 01 3f 31 e0 00 06 00 a2 0b f2 0f f9 ff    !????1?.?.?????.
10: f2 ff 11 00 20 58 ff 7f 00 00 0a 00 0a 00 46 0a    ?.?. X.?..?.?.F?
20: ca 0d 64 00 64 00 9c ff 0a 00 ff ff 18 fc 64 00    ??d.d.?.?...??d.
30: 00 00 50 fb 20 21 06 00 00 00 07 00 XX XX XX XX    ..P? !?...?.XXXX

Sun May 27 22:13:46 CEST 2012
     0  1  2  3  4  5  6  7  8  9  a  b  c  d  e  f    0123456789abcdef
00: 21 05 01 01 3f 31 e0 00 06 00 a2 0b f3 0f f1 ff    !????1?.?.?????.
10: f6 ff 11 00 e9 56 ff 7f 00 00 0a 00 0a 00 46 0a    ?.?.?V.?..?.?.F?
20: ca 0d 64 00 64 00 9c ff 0a 00 ff ff 18 fc 64 00    ??d.d.?.?...??d.
30: 00 00 50 fb 20 21 06 00 00 00 07 00 XX XX XX XX    ..P? !?...?.XXXX

Sun May 27 22:14:16 CEST 2012
     0  1  2  3  4  5  6  7  8  9  a  b  c  d  e  f    0123456789abcdef
00: 21 05 01 01 3f 31 e0 00 06 00 a2 0b f2 0f ec ff    !????1?.?.?????.
10: f6 ff 11 00 ba 55 ff 7f 00 00 0a 00 0a 00 46 0a    ?.?.?U.?..?.?.F?
20: ca 0d 64 00 64 00 9c ff 0a 00 ff ff 18 fc 64 00    ??d.d.?.?...??d.
30: 00 00 50 fb 20 21 06 00 00 00 07 00 XX XX XX XX    ..P? !?...?.XXXX

Sun May 27 22:14:46 CEST 2012
     0  1  2  3  4  5  6  7  8  9  a  b  c  d  e  f    0123456789abcdef
00: 21 05 01 01 3f 31 e0 00 06 00 a2 0b f2 0f f9 ff    !????1?.?.?????.
10: f7 ff 11 00 54 54 ff 7f 00 00 0a 00 0a 00 46 0a    ?.?.TT.?..?.?.F?
20: ca 0d 64 00 64 00 9c ff 0a 00 ff ff 18 fc 64 00    ??d.d.?.?...??d.
30: 00 00 50 fb 20 21 06 00 00 00 07 00 XX XX XX XX    ..P? !?...?.XXXX

Sun May 27 22:15:16 CEST 2012
     0  1  2  3  4  5  6  7  8  9  a  b  c  d  e  f    0123456789abcdef
00: 21 05 01 01 3f 31 e0 00 06 00 a2 0b f2 0f fa ff    !????1?.?.?????.
10: f9 ff 11 00 14 53 ff 7f 00 00 0a 00 0a 00 46 0a    ?.?.?S.?..?.?.F?
20: ca 0d 64 00 64 00 9c ff 0a 00 ff ff 18 fc 64 00    ??d.d.?.?...??d.
30: 00 00 50 fb 20 21 06 00 00 00 07 00 XX XX XX XX    ..P? !?...?.XXXX

Sun May 27 22:15:46 CEST 2012
     0  1  2  3  4  5  6  7  8  9  a  b  c  d  e  f    0123456789abcdef
00: 21 05 01 01 3f 31 e0 00 06 00 a2 0b f2 0f f9 ff    !????1?.?.?????.
10: f6 ff 11 00 d7 51 ff 7f 00 00 0a 00 0a 00 46 0a    ?.?.?Q.?..?.?.F?
20: ca 0d 64 00 64 00 9c ff 0a 00 ff ff 18 fc 64 00    ??d.d.?.?...??d.
30: 00 00 50 fb 20 21 06 00 00 00 07 00 XX XX XX XX    ..P? !?...?.XXXX

Sun May 27 22:16:17 CEST 2012
     0  1  2  3  4  5  6  7  8  9  a  b  c  d  e  f    0123456789abcdef
00: 21 05 01 01 3f 31 e0 00 06 00 a2 0b f2 0f f7 ff    !????1?.?.?????.
10: f5 ff 11 00 9c 50 ff 7f 00 00 0a 00 0a 00 46 0a    ?.?.?P.?..?.?.F?
20: ca 0d 64 00 64 00 9c ff 0a 00 ff ff 18 fc 64 00    ??d.d.?.?...??d.
30: 00 00 50 fb 20 21 06 00 00 00 07 00 XX XX XX XX    ..P? !?...?.XXXX

Sun May 27 22:16:47 CEST 2012
     0  1  2  3  4  5  6  7  8  9  a  b  c  d  e  f    0123456789abcdef
00: 21 05 01 01 3f 31 e0 00 06 00 a2 0b ef 0f f6 ff    !????1?.?.?????.
10: f6 ff 11 00 71 4f ff 7f 00 00 0a 00 0a 00 46 0a    ?.?.qO.?..?.?.F?
20: ca 0d 64 00 64 00 9c ff 0a 00 ff ff 18 fc 64 00    ??d.d.?.?...??d.
30: 00 00 50 fb 20 21 06 00 00 00 07 00 XX XX XX XX    ..P? !?...?.XXXX

Sun May 27 22:17:17 CEST 2012
     0  1  2  3  4  5  6  7  8  9  a  b  c  d  e  f    0123456789abcdef
00: 21 05 01 01 3f 31 e0 00 06 00 a2 0b f2 0f eb ff    !????1?.?.?????.
10: f7 ff 11 00 35 4e ff 7f 00 00 0a 00 0a 00 46 0a    ?.?.5N.?..?.?.F?
20: ca 0d 64 00 64 00 9c ff 0a 00 ff ff 18 fc 64 00    ??d.d.?.?...??d.
30: 00 00 50 fb 20 21 06 00 00 00 07 00 XX XX XX XX    ..P? !?...?.XXXX

Sun May 27 22:17:47 CEST 2012
     0  1  2  3  4  5  6  7  8  9  a  b  c  d  e  f    0123456789abcdef
00: 21 05 01 01 3f 31 e0 00 06 00 a2 0b f2 0f ef ff    !????1?.?.?????.
10: f6 ff 11 00 f2 4c ff 7f 00 00 0a 00 0a 00 46 0a    ?.?.?L.?..?.?.F?
20: ca 0d 64 00 64 00 9c ff 0a 00 ff ff 18 fc 64 00    ??d.d.?.?...??d.
30: 00 00 50 fb 20 21 06 00 00 00 07 00 XX XX XX XX    ..P? !?...?.XXXX

Sun May 27 22:18:17 CEST 2012
     0  1  2  3  4  5  6  7  8  9  a  b  c  d  e  f    0123456789abcdef
00: 21 05 01 01 3f 31 e0 00 06 00 a2 0b f1 0f fc ff    !????1?.?.?????.
10: f8 ff 11 00 b9 4b ff 7f 00 00 0a 00 0a 00 46 0a    ?.?.?K.?..?.?.F?
20: ca 0d 64 00 64 00 9c ff 0a 00 ff ff 18 fc 64 00    ??d.d.?.?...??d.
30: 00 00 50 fb 20 21 06 00 00 00 07 00 XX XX XX XX    ..P? !?...?.XXXX

Sun May 27 22:18:47 CEST 2012
     0  1  2  3  4  5  6  7  8  9  a  b  c  d  e  f    0123456789abcdef
00: 21 05 01 01 3f 31 e0 00 06 00 a2 0b f1 0f f1 ff    !????1?.?.?????.
10: f6 ff 11 00 81 4a ff 7f 00 00 0a 00 0a 00 46 0a    ?.?.?J.?..?.?.F?
20: ca 0d 64 00 64 00 9c ff 0a 00 ff ff 18 fc 64 00    ??d.d.?.?...??d.
30: 00 00 50 fb 20 21 06 00 00 00 07 00 XX XX XX XX    ..P? !?...?.XXXX

Sun May 27 22:19:17 CEST 2012
     0  1  2  3  4  5  6  7  8  9  a  b  c  d  e  f    0123456789abcdef
00: 21 05 01 01 3f 31 e0 00 06 00 a2 0b f2 0f fa ff    !????1?.?.?????.
10: f5 ff 11 00 42 49 ff 7f 00 00 0a 00 0a 00 46 0a    ?.?.BI.?..?.?.F?
20: ca 0d 64 00 64 00 9c ff 0a 00 ff ff 18 fc 64 00    ??d.d.?.?...??d.
30: 00 00 50 fb 20 21 06 00 00 00 07 00 XX XX XX XX    ..P? !?...?.XXXX

Sun May 27 22:19:47 CEST 2012
     0  1  2  3  4  5  6  7  8  9  a  b  c  d  e  f    0123456789abcdef
00: 21 05 01 01 3f 31 e0 00 06 00 a2 0b f0 0f fc ff    !????1?.?.?????.
10: f5 ff 11 00 c5 47 ff 7f 00 00 0a 00 0a 00 46 0a    ?.?.?G.?..?.?.F?
20: ca 0d 64 00 64 00 9c ff 0a 00 ff ff 18 fc 64 00    ??d.d.?.?...??d.
30: 00 00 50 fb 20 21 06 00 00 00 07 00 XX XX XX XX    ..P? !?...?.XXXX

Sun May 27 22:20:17 CEST 2012
     0  1  2  3  4  5  6  7  8  9  a  b  c  d  e  f    0123456789abcdef
00: 21 05 01 01 3f 31 e0 00 06 00 a2 0b ef 0f fd ff    !????1?.?.?????.
10: f6 ff 11 00 18 45 ff 7f 00 00 0a 00 0a 00 46 0a    ?.?.?E.?..?.?.F?
20: ca 0d 64 00 64 00 9c ff 0a 00 ff ff 18 fc 64 00    ??d.d.?.?...??d.
30: 00 00 50 fb 20 21 06 00 00 00 07 00 XX XX XX XX    ..P? !?...?.XXXX

Sun May 27 22:20:47 CEST 2012
     0  1  2  3  4  5  6  7  8  9  a  b  c  d  e  f    0123456789abcdef
00: 21 05 01 01 3f 31 e0 00 06 00 a1 0b f1 0f fc ff    !????1?.?.?????.
10: f4 ff 11 00 e4 43 ff 7f 00 00 0a 00 0a 00 46 0a    ?.?.?C.?..?.?.F?
20: ca 0d 64 00 64 00 9c ff 0a 00 ff ff 18 fc 64 00    ??d.d.?.?...??d.
30: 00 00 50 fb 20 21 06 00 00 00 07 00 XX XX XX XX    ..P? !?...?.XXXX

Sun May 27 22:21:17 CEST 2012
     0  1  2  3  4  5  6  7  8  9  a  b  c  d  e  f    0123456789abcdef
00: 21 05 01 01 3f 31 e0 00 06 00 a1 0b f0 0f fb ff    !????1?.?.?????.
10: f5 ff 11 00 a0 42 ff 7f 00 00 0a 00 0a 00 46 0a    ?.?.?B.?..?.?.F?
20: ca 0d 64 00 64 00 9c ff 0a 00 ff ff 18 fc 64 00    ??d.d.?.?...??d.
30: 00 00 50 fb 20 21 06 00 00 00 07 00 XX XX XX XX    ..P? !?...?.XXXX

Sun May 27 22:21:48 CEST 2012
     0  1  2  3  4  5  6  7  8  9  a  b  c  d  e  f    0123456789abcdef
00: 21 05 01 01 3f 31 e0 00 06 00 a1 0b f2 0f ea ff    !????1?.?.?????.
10: f4 ff 11 00 5b 41 ff 7f 00 00 0a 00 0a 00 46 0a    ?.?.[A.?..?.?.F?
20: ca 0d 64 00 64 00 9c ff 0a 00 ff ff 18 fc 64 00    ??d.d.?.?...??d.
30: 00 00 50 fb 20 21 06 00 00 00 07 00 XX XX XX XX    ..P? !?...?.XXXX

Sun May 27 22:22:18 CEST 2012
     0  1  2  3  4  5  6  7  8  9  a  b  c  d  e  f    0123456789abcdef
00: 21 05 01 01 3f 31 e0 00 06 00 a1 0b f1 0f fd ff    !????1?.?.?????.
10: f4 ff 11 00 14 40 ff 7f 00 00 0a 00 0a 00 46 0a    ?.?.?@.?..?.?.F?
20: ca 0d 64 00 64 00 9c ff 0a 00 ff ff 18 fc 64 00    ??d.d.?.?...??d.
30: 00 00 50 fb 20 21 06 00 00 00 07 00 XX XX XX XX    ..P? !?...?.XXXX

Sun May 27 22:22:48 CEST 2012
     0  1  2  3  4  5  6  7  8  9  a  b  c  d  e  f    0123456789abcdef
00: 21 05 01 01 3f 31 e0 00 06 00 a1 0b f0 0f e2 ff    !????1?.?.?????.
10: f3 ff 11 00 e1 3e ff 7f 00 00 0a 00 0a 00 46 0a    ?.?.?>.?..?.?.F?
20: ca 0d 64 00 64 00 9c ff 0a 00 ff ff 18 fc 64 00    ??d.d.?.?...??d.
30: 00 00 50 fb 20 21 06 00 00 00 07 00 XX XX XX XX    ..P? !?...?.XXXX

Sun May 27 22:23:18 CEST 2012
     0  1  2  3  4  5  6  7  8  9  a  b  c  d  e  f    0123456789abcdef
00: 21 05 01 01 3f 31 e0 00 06 00 a1 0b f0 0f f7 ff    !????1?.?.?????.
10: f5 ff 11 00 9d 3d ff 7f 00 00 0a 00 0a 00 46 0a    ?.?.?=.?..?.?.F?
20: ca 0d 64 00 64 00 9c ff 0a 00 ff ff 18 fc 64 00    ??d.d.?.?...??d.
30: 00 00 50 fb 20 21 06 00 00 00 07 00 XX XX XX XX    ..P? !?...?.XXXX

Sun May 27 22:23:48 CEST 2012
     0  1  2  3  4  5  6  7  8  9  a  b  c  d  e  f    0123456789abcdef
00: 21 05 01 01 3f 31 e0 00 06 00 a1 0b f1 0f fb ff    !????1?.?.?????.
10: f4 ff 11 00 57 3c ff 7f 00 00 0a 00 0a 00 46 0a    ?.?.W<.?..?.?.F?
20: ca 0d 64 00 64 00 9c ff 0a 00 ff ff 18 fc 64 00    ??d.d.?.?...??d.
30: 00 00 50 fb 20 21 06 00 00 00 07 00 XX XX XX XX    ..P? !?...?.XXXX

Sun May 27 22:24:18 CEST 2012
     0  1  2  3  4  5  6  7  8  9  a  b  c  d  e  f    0123456789abcdef
00: 21 05 01 01 3f 31 e0 00 06 00 a1 0b ee 0f fc ff    !????1?.?.?????.
10: f6 ff 11 00 13 3b ff 7f 00 00 0a 00 0a 00 46 0a    ?.?.?;.?..?.?.F?
20: ca 0d 64 00 64 00 9c ff 0a 00 ff ff 18 fc 64 00    ??d.d.?.?...??d.
30: 00 00 50 fb 20 21 06 00 00 00 07 00 XX XX XX XX    ..P? !?...?.XXXX

Sun May 27 22:24:48 CEST 2012
     0  1  2  3  4  5  6  7  8  9  a  b  c  d  e  f    0123456789abcdef
00: 21 05 01 01 3f 31 e0 00 06 00 a1 0b f1 0f f7 ff    !????1?.?.?????.
10: f6 ff 11 00 a0 39 ff 7f 00 00 0a 00 0a 00 46 0a    ?.?.?9.?..?.?.F?
20: ca 0d 64 00 64 00 9c ff 0a 00 ff ff 18 fc 64 00    ??d.d.?.?...??d.
30: 00 00 50 fb 20 21 06 00 00 00 07 00 XX XX XX XX    ..P? !?...?.XXXX

Sun May 27 22:25:18 CEST 2012
     0  1  2  3  4  5  6  7  8  9  a  b  c  d  e  f    0123456789abcdef
00: 21 05 01 01 3f 31 e0 00 06 00 a1 0b f0 0f f9 ff    !????1?.?.?????.
10: f6 ff 11 00 62 38 ff 7f 00 00 0a 00 0a 00 46 0a    ?.?.b8.?..?.?.F?
20: ca 0d 64 00 64 00 9c ff 0a 00 ff ff 18 fc 64 00    ??d.d.?.?...??d.
30: 00 00 50 fb 20 21 06 00 00 00 07 00 XX XX XX XX    ..P? !?...?.XXXX

Sun May 27 22:25:48 CEST 2012
     0  1  2  3  4  5  6  7  8  9  a  b  c  d  e  f    0123456789abcdef
00: 21 05 01 01 3f 31 e0 00 06 00 a1 0b f0 0f f0 ff    !????1?.?.?????.
10: f8 ff 11 00 22 37 ff 7f 00 00 0a 00 0a 00 46 0a    ?.?."7.?..?.?.F?
20: ca 0d 64 00 64 00 9c ff 0a 00 ff ff 18 fc 64 00    ??d.d.?.?...??d.
30: 00 00 50 fb 20 21 06 00 00 00 07 00 XX XX XX XX    ..P? !?...?.XXXX

Sun May 27 22:26:18 CEST 2012
     0  1  2  3  4  5  6  7  8  9  a  b  c  d  e  f    0123456789abcdef
00: 21 05 01 01 3f 31 e0 00 06 00 a1 0b eb 0f fc ff    !????1?.?.?????.
10: f9 ff 11 00 e4 35 ff 7f 00 00 0a 00 0a 00 46 0a    ?.?.?5.?..?.?.F?
20: ca 0d 64 00 64 00 9c ff 0a 00 ff ff 18 fc 64 00    ??d.d.?.?...??d.
30: 00 00 50 fb 20 21 06 00 00 00 07 00 XX XX XX XX    ..P? !?...?.XXXX

Sun May 27 22:26:49 CEST 2012
     0  1  2  3  4  5  6  7  8  9  a  b  c  d  e  f    0123456789abcdef
00: 21 05 01 01 3f 31 e0 00 06 00 a1 0b f0 0f fe ff    !????1?.?.?????.
10: f5 ff 11 00 a0 34 ff 7f 00 00 0a 00 0a 00 46 0a    ?.?.?4.?..?.?.F?
20: ca 0d 64 00 64 00 9c ff 0a 00 ff ff 18 fc 64 00    ??d.d.?.?...??d.
30: 00 00 50 fb 20 21 06 00 00 00 07 00 XX XX XX XX    ..P? !?...?.XXXX

Sun May 27 22:27:19 CEST 2012
     0  1  2  3  4  5  6  7  8  9  a  b  c  d  e  f    0123456789abcdef
00: 21 05 01 01 3f 31 e0 00 06 00 a1 0b f1 0f fc ff    !????1?.?.?????.
10: f7 ff 11 00 67 33 ff 7f 00 00 0a 00 0a 00 46 0a    ?.?.g3.?..?.?.F?
20: ca 0d 64 00 64 00 9c ff 0a 00 ff ff 18 fc 64 00    ??d.d.?.?...??d.
30: 00 00 50 fb 20 21 06 00 00 00 07 00 XX XX XX XX    ..P? !?...?.XXXX

Sun May 27 22:27:49 CEST 2012
     0  1  2  3  4  5  6  7  8  9  a  b  c  d  e  f    0123456789abcdef
00: 21 05 01 01 3f 31 e0 00 06 00 a1 0b f0 0f f6 ff    !????1?.?.?????.
10: f7 ff 11 00 12 32 ff 7f 00 00 0a 00 0a 00 46 0a    ?.?.?2.?..?.?.F?
20: ca 0d 64 00 64 00 9c ff 0a 00 ff ff 18 fc 64 00    ??d.d.?.?...??d.
30: 00 00 50 fb 20 21 06 00 00 00 07 00 XX XX XX XX    ..P? !?...?.XXXX

Sun May 27 22:28:19 CEST 2012
     0  1  2  3  4  5  6  7  8  9  a  b  c  d  e  f    0123456789abcdef
00: 21 05 01 01 3f 31 e0 00 06 00 a1 0b f0 0f f2 ff    !????1?.?.?????.
10: f3 ff 11 00 c8 30 ff 7f 00 00 0a 00 0a 00 46 0a    ?.?.?0.?..?.?.F?
20: ca 0d 64 00 64 00 9c ff 0a 00 ff ff 18 fc 64 00    ??d.d.?.?...??d.
30: 00 00 50 fb 20 21 06 00 00 00 07 00 XX XX XX XX    ..P? !?...?.XXXX

Sun May 27 22:28:49 CEST 2012
     0  1  2  3  4  5  6  7  8  9  a  b  c  d  e  f    0123456789abcdef
00: 21 05 01 01 3f 31 e0 00 06 00 a1 0b f1 0f f8 ff    !????1?.?.?????.
10: f7 ff 11 00 a4 2f ff 7f 00 00 0a 00 0a 00 46 0a    ?.?.?/.?..?.?.F?
20: ca 0d 64 00 64 00 9c ff 0a 00 ff ff 18 fc 64 00    ??d.d.?.?...??d.
30: 00 00 50 fb 20 21 06 00 00 00 07 00 XX XX XX XX    ..P? !?...?.XXXX

Sun May 27 22:29:19 CEST 2012
     0  1  2  3  4  5  6  7  8  9  a  b  c  d  e  f    0123456789abcdef
00: 21 05 01 01 3f 31 e0 00 06 00 a1 0b ef 0f eb ff    !????1?.?.?????.
10: f6 ff 11 00 5e 2e ff 7f 00 00 0a 00 0a 00 46 0a    ?.?.^..?..?.?.F?
20: ca 0d 64 00 64 00 9c ff 0a 00 ff ff 18 fc 64 00    ??d.d.?.?...??d.
30: 00 00 50 fb 20 21 06 00 00 00 07 00 XX XX XX XX    ..P? !?...?.XXXX

Sun May 27 22:29:49 CEST 2012
     0  1  2  3  4  5  6  7  8  9  a  b  c  d  e  f    0123456789abcdef
00: 21 05 01 01 3f 31 e0 00 06 00 a1 0b f0 0f f6 ff    !????1?.?.?????.
10: f7 ff 11 00 fa 2c ff 7f 00 00 0a 00 0a 00 46 0a    ?.?.?,.?..?.?.F?
20: ca 0d 64 00 64 00 9c ff 0a 00 ff ff 18 fc 64 00    ??d.d.?.?...??d.
30: 00 00 50 fb 20 21 06 00 00 00 07 00 XX XX XX XX    ..P? !?...?.XXXX

Sun May 27 22:30:19 CEST 2012
     0  1  2  3  4  5  6  7  8  9  a  b  c  d  e  f    0123456789abcdef
00: 21 05 01 01 3f 31 e0 00 06 00 a1 0b ed 0f f4 ff    !????1?.?.?????.
10: f5 ff 11 00 b0 2b ff 7f 00 00 0a 00 0a 00 46 0a    ?.?.?+.?..?.?.F?
20: ca 0d 64 00 64 00 9c ff 0a 00 ff ff 18 fc 64 00    ??d.d.?.?...??d.
30: 00 00 50 fb 20 21 06 00 00 00 07 00 XX XX XX XX    ..P? !?...?.XXXX

Sun May 27 22:30:49 CEST 2012
     0  1  2  3  4  5  6  7  8  9  a  b  c  d  e  f    0123456789abcdef
00: 21 05 01 01 3f 31 e0 00 06 00 a1 0b eb 0f fb ff    !????1?.?.?????.
10: f5 ff 11 00 76 2a ff 7f 00 00 0a 00 0a 00 46 0a    ?.?.v*.?..?.?.F?
20: ca 0d 64 00 64 00 9c ff 0a 00 ff ff 18 fc 64 00    ??d.d.?.?...??d.
30: 00 00 50 fb 20 21 06 00 00 00 07 00 XX XX XX XX    ..P? !?...?.XXXX

Sun May 27 22:31:19 CEST 2012
     0  1  2  3  4  5  6  7  8  9  a  b  c  d  e  f    0123456789abcdef
00: 21 05 01 01 3f 31 e0 00 06 00 a1 0b ed 0f f9 ff    !????1?.?.?????.
10: f5 ff 11 00 29 29 ff 7f 00 00 0a 00 0a 00 46 0a    ?.?.)).?..?.?.F?
20: ca 0d 64 00 64 00 9c ff 0a 00 ff ff 18 fc 64 00    ??d.d.?.?...??d.
30: 00 00 50 fb 20 21 06 00 00 00 07 00 XX XX XX XX    ..P? !?...?.XXXX

Sun May 27 22:31:50 CEST 2012
     0  1  2  3  4  5  6  7  8  9  a  b  c  d  e  f    0123456789abcdef
00: 21 05 01 01 3f 31 e0 00 06 00 a1 0b ef 0f fd ff    !????1?.?.?????.
10: f5 ff 11 00 e8 27 ff 7f 00 00 0a 00 0a 00 46 0a    ?.?.?'.?..?.?.F?
20: ca 0d 64 00 64 00 9c ff 0a 00 ff ff 18 fc 64 00    ??d.d.?.?...??d.
30: 00 00 50 fb 20 21 06 00 00 00 07 00 XX XX XX XX    ..P? !?...?.XXXX

Sun May 27 22:32:20 CEST 2012
     0  1  2  3  4  5  6  7  8  9  a  b  c  d  e  f    0123456789abcdef
00: 21 05 01 01 3f 31 e0 00 06 00 a1 0b f0 0f fd ff    !????1?.?.?????.
10: f4 ff 11 00 9a 26 ff 7f 00 00 0a 00 0a 00 46 0a    ?.?.?&.?..?.?.F?
20: ca 0d 64 00 64 00 9c ff 0a 00 ff ff 18 fc 64 00    ??d.d.?.?...??d.
30: 00 00 50 fb 20 21 06 00 00 00 07 00 XX XX XX XX    ..P? !?...?.XXXX

Sun May 27 22:32:50 CEST 2012
     0  1  2  3  4  5  6  7  8  9  a  b  c  d  e  f    0123456789abcdef
00: 21 05 01 01 3f 31 e0 00 06 00 a1 0b ef 0f f8 ff    !????1?.?.?????.
10: f3 ff 11 00 60 25 ff 7f 00 00 0a 00 0a 00 46 0a    ?.?.`%.?..?.?.F?
20: ca 0d 64 00 64 00 9c ff 0a 00 ff ff 18 fc 64 00    ??d.d.?.?...??d.
30: 00 00 50 fb 20 21 06 00 00 00 07 00 XX XX XX XX    ..P? !?...?.XXXX

Sun May 27 22:33:20 CEST 2012
     0  1  2  3  4  5  6  7  8  9  a  b  c  d  e  f    0123456789abcdef
00: 21 05 01 01 3f 31 e0 00 06 00 a1 0b ef 0f fe ff    !????1?.?.?????.
10: f4 ff 11 00 1c 24 ff 7f 00 00 0a 00 0a 00 46 0a    ?.?.?$.?..?.?.F?
20: ca 0d 64 00 64 00 9c ff 0a 00 ff ff 18 fc 64 00    ??d.d.?.?...??d.
30: 00 00 50 fb 20 21 06 00 00 00 07 00 XX XX XX XX    ..P? !?...?.XXXX

Sun May 27 22:33:50 CEST 2012
     0  1  2  3  4  5  6  7  8  9  a  b  c  d  e  f    0123456789abcdef
00: 21 05 01 01 3f 31 e0 00 06 00 a1 0b f0 0f f7 ff    !????1?.?.?????.
10: f3 ff 11 00 e0 22 ff 7f 00 00 0a 00 0a 00 46 0a    ?.?.?".?..?.?.F?
20: ca 0d 64 00 64 00 9c ff 0a 00 ff ff 18 fc 64 00    ??d.d.?.?...??d.
30: 00 00 50 fb 20 21 06 00 00 00 07 00 XX XX XX XX    ..P? !?...?.XXXX

Sun May 27 22:34:20 CEST 2012
     0  1  2  3  4  5  6  7  8  9  a  b  c  d  e  f    0123456789abcdef
00: 21 05 01 01 3f 31 e0 00 06 00 a1 0b ef 0f f2 ff    !????1?.?.?????.
10: f5 ff 11 00 93 21 ff 7f 00 00 0a 00 0a 00 46 0a    ?.?.?!.?..?.?.F?
20: ca 0d 64 00 64 00 9c ff 0a 00 ff ff 18 fc 64 00    ??d.d.?.?...??d.
30: 00 00 50 fb 20 21 06 00 00 00 07 00 XX XX XX XX    ..P? !?...?.XXXX

Sun May 27 22:34:50 CEST 2012
     0  1  2  3  4  5  6  7  8  9  a  b  c  d  e  f    0123456789abcdef
00: 21 05 01 01 3f 31 e0 00 06 00 a1 0b ef 0f f2 ff    !????1?.?.?????.
10: f7 ff 11 00 27 20 ff 7f 00 00 0a 00 0a 00 46 0a    ?.?.' .?..?.?.F?
20: ca 0d 64 00 64 00 9c ff 0a 00 ff ff 18 fc 64 00    ??d.d.?.?...??d.
30: 00 00 50 fb 20 21 06 00 00 00 07 00 XX XX XX XX    ..P? !?...?.XXXX

Sun May 27 22:35:20 CEST 2012
     0  1  2  3  4  5  6  7  8  9  a  b  c  d  e  f    0123456789abcdef
00: 21 05 01 01 3f 31 e0 00 06 00 a1 0b ef 0f f8 ff    !????1?.?.?????.
10: f7 ff 11 00 b9 1e ff 7f 00 00 0a 00 0a 00 46 0a    ?.?.??.?..?.?.F?
20: ca 0d 64 00 64 00 9c ff 0a 00 ff ff 18 fc 64 00    ??d.d.?.?...??d.
30: 00 00 50 fb 20 21 06 00 00 00 07 00 XX XX XX XX    ..P? !?...?.XXXX

Sun May 27 22:35:50 CEST 2012
     0  1  2  3  4  5  6  7  8  9  a  b  c  d  e  f    0123456789abcdef
00: 21 05 01 01 3f 31 e0 00 06 00 a0 0b ef 0f f8 ff    !????1?.?.?????.
10: f8 ff 11 00 7b 1d ff 7f 00 00 0a 00 0a 00 46 0a    ?.?.{?.?..?.?.F?
20: ca 0d 64 00 64 00 9c ff 0a 00 ff ff 18 fc 64 00    ??d.d.?.?...??d.
30: 00 00 50 fb 20 21 06 00 00 00 07 00 XX XX XX XX    ..P? !?...?.XXXX

Sun May 27 22:36:20 CEST 2012
     0  1  2  3  4  5  6  7  8  9  a  b  c  d  e  f    0123456789abcdef
00: 21 05 01 01 3f 31 e0 00 06 00 a0 0b ef 0f fd ff    !????1?.?.?????.
10: f8 ff 11 00 40 1c ff 7f 00 00 0a 00 0a 00 46 0a    ?.?.@?.?..?.?.F?
20: ca 0d 64 00 64 00 9c ff 0a 00 ff ff 18 fc 64 00    ??d.d.?.?...??d.
30: 00 00 50 fb 20 21 06 00 00 00 07 00 XX XX XX XX    ..P? !?...?.XXXX

Sun May 27 22:36:51 CEST 2012
     0  1  2  3  4  5  6  7  8  9  a  b  c  d  e  f    0123456789abcdef
00: 21 05 01 01 3f 31 e0 00 06 00 a0 0b ee 0f ee ff    !????1?.?.?????.
10: f9 ff 11 00 03 1b ff 7f 00 00 0a 00 0a 00 46 0a    ?.?.??.?..?.?.F?
20: ca 0d 64 00 64 00 9c ff 0a 00 ff ff 18 fc 64 00    ??d.d.?.?...??d.
30: 00 00 50 fb 20 21 06 00 00 00 07 00 XX XX XX XX    ..P? !?...?.XXXX

Sun May 27 22:37:21 CEST 2012
     0  1  2  3  4  5  6  7  8  9  a  b  c  d  e  f    0123456789abcdef
00: 21 05 01 01 3f 31 e0 00 06 00 a0 0b ee 0f f9 ff    !????1?.?.?????.
10: f8 ff 11 00 cb 19 ff 7f 00 00 0a 00 0a 00 46 0a    ?.?.??.?..?.?.F?
20: ca 0d 64 00 64 00 9c ff 0a 00 ff ff 18 fc 64 00    ??d.d.?.?...??d.
30: 00 00 50 fb 20 21 06 00 00 00 07 00 XX XX XX XX    ..P? !?...?.XXXX

Sun May 27 22:37:51 CEST 2012
     0  1  2  3  4  5  6  7  8  9  a  b  c  d  e  f    0123456789abcdef
00: 21 05 01 01 3f 31 e0 00 06 00 a0 0b eb 0f ec ff    !????1?.?.?????.
10: f8 ff 11 00 89 18 ff 7f 00 00 0a 00 0a 00 46 0a    ?.?.??.?..?.?.F?
20: ca 0d 64 00 64 00 9c ff 0a 00 ff ff 18 fc 64 00    ??d.d.?.?...??d.
30: 00 00 50 fb 20 21 06 00 00 00 07 00 XX XX XX XX    ..P? !?...?.XXXX

Sun May 27 22:38:21 CEST 2012
     0  1  2  3  4  5  6  7  8  9  a  b  c  d  e  f    0123456789abcdef
00: 21 05 01 01 3f 31 e0 00 06 00 a0 0b ee 0f f1 ff    !????1?.?.?????.
10: f7 ff 11 00 4b 17 ff 7f 00 00 0a 00 0a 00 46 0a    ?.?.K?.?..?.?.F?
20: ca 0d 64 00 64 00 9c ff 0a 00 ff ff 18 fc 64 00    ??d.d.?.?...??d.
30: 00 00 50 fb 20 21 06 00 00 00 07 00 XX XX XX XX    ..P? !?...?.XXXX

Sun May 27 22:38:51 CEST 2012
     0  1  2  3  4  5  6  7  8  9  a  b  c  d  e  f    0123456789abcdef
00: 21 05 01 01 3f 31 e0 00 06 00 a0 0b ee 0f fb ff    !????1?.?.?????.
10: f5 ff 11 00 10 16 ff 7f 00 00 0a 00 0a 00 46 0a    ?.?.??.?..?.?.F?
20: ca 0d 64 00 64 00 9c ff 0a 00 ff ff 18 fc 64 00    ??d.d.?.?...??d.
30: 00 00 50 fb 20 21 06 00 00 00 07 00 XX XX XX XX    ..P? !?...?.XXXX

Sun May 27 22:39:21 CEST 2012
     0  1  2  3  4  5  6  7  8  9  a  b  c  d  e  f    0123456789abcdef
00: 21 05 01 01 3f 31 e0 00 06 00 a0 0b ef 0f f8 ff    !????1?.?.?????.
10: f4 ff 11 00 cd 14 ff 7f 00 00 0a 00 0a 00 46 0a    ?.?.??.?..?.?.F?
20: ca 0d 64 00 64 00 9c ff 0a 00 ff ff 18 fc 64 00    ??d.d.?.?...??d.
30: 00 00 50 fb 20 21 06 00 00 00 07 00 XX XX XX XX    ..P? !?...?.XXXX

Sun May 27 22:39:51 CEST 2012
     0  1  2  3  4  5  6  7  8  9  a  b  c  d  e  f    0123456789abcdef
00: 21 05 01 01 3f 31 e0 00 06 00 a0 0b ef 0f f5 ff    !????1?.?.?????.
10: f7 ff 11 00 67 13 ff 7f 00 00 0a 00 0a 00 46 0a    ?.?.g?.?..?.?.F?
20: ca 0d 64 00 64 00 9c ff 0a 00 ff ff 18 fc 64 00    ??d.d.?.?...??d.
30: 00 00 50 fb 20 21 06 00 00 00 07 00 XX XX XX XX    ..P? !?...?.XXXX

Sun May 27 22:40:21 CEST 2012
     0  1  2  3  4  5  6  7  8  9  a  b  c  d  e  f    0123456789abcdef
00: 21 05 01 01 3f 31 e0 00 06 00 a0 0b ee 0f fd ff    !????1?.?.?????.
10: f6 ff 11 00 23 12 ff 7f 00 00 0a 00 0a 00 46 0a    ?.?.#?.?..?.?.F?
20: ca 0d 64 00 64 00 9c ff 0a 00 ff ff 18 fc 64 00    ??d.d.?.?...??d.
30: 00 00 50 fb 20 21 06 00 00 00 07 00 XX XX XX XX    ..P? !?...?.XXXX

Sun May 27 22:40:51 CEST 2012
     0  1  2  3  4  5  6  7  8  9  a  b  c  d  e  f    0123456789abcdef
00: 21 05 01 01 3f 31 e0 00 06 00 a0 0b ee 0f ec ff    !????1?.?.?????.
10: f5 ff 11 00 de 10 ff 7f 00 00 0a 00 0a 00 46 0a    ?.?.??.?..?.?.F?
20: ca 0d 64 00 64 00 9c ff 0a 00 ff ff 18 fc 64 00    ??d.d.?.?...??d.
30: 00 00 50 fb 20 21 06 00 00 00 07 00 XX XX XX XX    ..P? !?...?.XXXX

Sun May 27 22:41:21 CEST 2012
     0  1  2  3  4  5  6  7  8  9  a  b  c  d  e  f    0123456789abcdef
00: 21 05 01 01 3f 31 e0 00 06 00 a0 0b ee 0f fa ff    !????1?.?.?????.
10: f7 ff 11 00 9c 0f ff 7f 00 00 0a 00 0a 00 46 0a    ?.?.??.?..?.?.F?
20: ca 0d 64 00 64 00 9c ff 0a 00 ff ff 18 fc 64 00    ??d.d.?.?...??d.
30: 00 00 50 fb 20 21 06 00 00 00 07 00 XX XX XX XX    ..P? !?...?.XXXX

Sun May 27 22:41:51 CEST 2012
     0  1  2  3  4  5  6  7  8  9  a  b  c  d  e  f    0123456789abcdef
00: 21 05 01 01 3f 31 e0 00 06 00 a0 0b eb 0f f8 ff    !????1?.?.?????.
10: f7 ff 11 00 69 0e ff 7f 00 00 0a 00 0a 00 46 0a    ?.?.i?.?..?.?.F?
20: ca 0d 64 00 64 00 9c ff 0a 00 ff ff 18 fc 64 00    ??d.d.?.?...??d.
30: 00 00 50 fb 20 21 06 00 00 00 07 00 XX XX XX XX    ..P? !?...?.XXXX

Sun May 27 22:42:22 CEST 2012
     0  1  2  3  4  5  6  7  8  9  a  b  c  d  e  f    0123456789abcdef
00: 21 05 01 01 3f 31 e0 00 06 00 a0 0b e1 0f fb ff    !????1?.?.?????.
10: f8 ff 11 00 2e 0d ff 7f 00 00 0a 00 0a 00 46 0a    ?.?..?.?..?.?.F?
20: ca 0d 64 00 64 00 9c ff 0a 00 ff ff 18 fc 64 00    ??d.d.?.?...??d.
30: 00 00 50 fb 20 21 06 00 00 00 07 00 XX XX XX XX    ..P? !?...?.XXXX

Sun May 27 22:42:52 CEST 2012
     0  1  2  3  4  5  6  7  8  9  a  b  c  d  e  f    0123456789abcdef
00: 21 05 01 01 3f 31 e0 00 06 00 a0 0b e6 0f fd ff    !????1?.?.?????.
10: f3 ff 11 00 d6 0b ff 7f 00 00 0a 00 0a 00 46 0a    ?.?.??.?..?.?.F?
20: ca 0d 64 00 64 00 9c ff 0a 00 ff ff 18 fc 64 00    ??d.d.?.?...??d.
30: 00 00 50 fb 20 21 06 00 00 00 07 00 XX XX XX XX    ..P? !?...?.XXXX

Sun May 27 22:43:22 CEST 2012
     0  1  2  3  4  5  6  7  8  9  a  b  c  d  e  f    0123456789abcdef
00: 21 05 01 01 3f 31 e0 00 06 00 a0 0b ee 0f f8 ff    !????1?.?.?????.
10: ef ff 11 00 95 0a ff 7f 00 00 0a 00 0a 00 46 0a    ?.?.??.?..?.?.F?
20: ca 0d 64 00 64 00 9c ff 0a 00 ff ff 18 fc 64 00    ??d.d.?.?...??d.
30: 00 00 50 fb 20 21 06 00 00 00 07 00 XX XX XX XX    ..P? !?...?.XXXX

Sun May 27 22:43:52 CEST 2012
     0  1  2  3  4  5  6  7  8  9  a  b  c  d  e  f    0123456789abcdef
00: 21 05 01 01 3f 31 e0 00 06 00 a0 0b ee 0f fb ff    !????1?.?.?????.
10: ef ff 11 00 64 09 ff 7f 00 00 0a 00 0a 00 46 0a    ?.?.d?.?..?.?.F?
20: ca 0d 64 00 64 00 9c ff 0a 00 ff ff 18 fc 64 00    ??d.d.?.?...??d.
30: 00 00 50 fb 20 21 06 00 00 00 07 00 XX XX XX XX    ..P? !?...?.XXXX

Sun May 27 22:44:22 CEST 2012
     0  1  2  3  4  5  6  7  8  9  a  b  c  d  e  f    0123456789abcdef
00: 21 05 01 01 3f 31 e0 00 06 00 a0 0b ee 0f f2 ff    !????1?.?.?????.
10: ea ff 11 00 17 08 ff 7f 00 00 0a 00 0a 00 46 0a    ?.?.??.?..?.?.F?
20: ca 0d 64 00 64 00 9c ff 0a 00 ff ff 18 fc 64 00    ??d.d.?.?...??d.
30: 00 00 50 fb 20 21 06 00 00 00 07 00 XX XX XX XX    ..P? !?...?.XXXX

Sun May 27 22:44:52 CEST 2012
     0  1  2  3  4  5  6  7  8  9  a  b  c  d  e  f    0123456789abcdef
00: 21 05 01 01 3f 31 e0 00 06 00 a0 0b ee 0f f5 ff    !????1?.?.?????.
10: ec ff 11 00 a7 06 ff 7f 00 00 0a 00 0a 00 46 0a    ?.?.??.?..?.?.F?
20: ca 0d 64 00 64 00 9c ff 0a 00 ff ff 18 fc 64 00    ??d.d.?.?...??d.
30: 00 00 50 fb 20 21 06 00 00 00 07 00 XX XX XX XX    ..P? !?...?.XXXX

Sun May 27 22:45:22 CEST 2012
     0  1  2  3  4  5  6  7  8  9  a  b  c  d  e  f    0123456789abcdef
00: 21 05 01 01 3f 31 e0 00 06 00 a0 0b ed 0f a9 ff    !????1?.?.?????.
10: f7 ff 11 00 7b 05 ff 7f 00 00 0a 00 0a 00 46 0a    ?.?.{?.?..?.?.F?
20: ca 0d 64 00 64 00 9c ff 0a 00 ff ff 18 fc 64 00    ??d.d.?.?...??d.
30: 00 00 50 fb 20 21 06 00 00 00 07 00 XX XX XX XX    ..P? !?...?.XXXX

Sun May 27 22:45:52 CEST 2012
     0  1  2  3  4  5  6  7  8  9  a  b  c  d  e  f    0123456789abcdef
00: 21 05 01 01 3f 31 e0 00 06 00 a0 0b ed 0f f9 ff    !????1?.?.?????.
10: f8 ff 11 00 3e 04 ff 7f 00 00 0a 00 0a 00 46 0a    ?.?.>?.?..?.?.F?
20: ca 0d 64 00 64 00 9c ff 0a 00 ff ff 18 fc 64 00    ??d.d.?.?...??d.
30: 00 00 50 fb 20 21 06 00 00 00 07 00 XX XX XX XX    ..P? !?...?.XXXX

Sun May 27 22:46:23 CEST 2012
     0  1  2  3  4  5  6  7  8  9  a  b  c  d  e  f    0123456789abcdef
00: 21 05 01 01 3f 31 e0 00 06 00 a0 0b e0 0f f4 ff    !????1?.?.?????.
10: f8 ff 11 00 00 03 ff 7f 00 00 0a 00 0a 00 46 0a    ?.?..?.?..?.?.F?
20: ca 0d 64 00 64 00 9c ff 0a 00 ff ff 18 fc 64 00    ??d.d.?.?...??d.
30: 00 00 50 fb 20 21 06 00 00 00 07 00 XX XX XX XX    ..P? !?...?.XXXX

Sun May 27 22:46:53 CEST 2012
     0  1  2  3  4  5  6  7  8  9  a  b  c  d  e  f    0123456789abcdef
00: 21 05 01 01 3f 31 e0 00 06 00 a0 0b eb 0f f6 ff    !????1?.?.?????.
10: ef ff 11 00 af 01 ff 7f 00 00 0a 00 0a 00 46 0a    ?.?.??.?..?.?.F?
20: ca 0d 64 00 64 00 9c ff 0a 00 ff ff 18 fc 64 00    ??d.d.?.?...??d.
30: 00 00 50 fb 20 21 06 00 00 00 07 00 XX XX XX XX    ..P? !?...?.XXXX

Sun May 27 22:47:23 CEST 2012
     0  1  2  3  4  5  6  7  8  9  a  b  c  d  e  f    0123456789abcdef
00: 21 05 01 01 3f 31 e0 00 06 00 a0 0b e9 0f ed ff    !????1?.?.?????.
10: f0 ff 11 00 6e 00 ff 7f 00 00 0a 00 0a 00 46 0a    ?.?.n..?..?.?.F?
20: ca 0d 64 00 64 00 9c ff 0a 00 ff ff 18 fc 64 00    ??d.d.?.?...??d.
30: 00 00 50 fb 20 21 06 00 00 00 07 00 XX XX XX XX    ..P? !?...?.XXXX

Sun May 27 22:47:53 CEST 2012
     0  1  2  3  4  5  6  7  8  9  a  b  c  d  e  f    0123456789abcdef
00: 21 05 01 01 3f 31 e0 00 06 00 a0 0b ed 0f f9 ff    !????1?.?.?????.
10: ed ff 10 00 2d ff ff 7f 00 00 0a 00 0a 00 46 0a    ?.?.-..?..?.?.F?
20: ca 0d 64 00 64 00 9c ff 0a 00 ff ff 18 fc 64 00    ??d.d.?.?...??d.
30: 00 00 50 fb 20 21 06 00 00 00 07 00 XX XX XX XX    ..P? !?...?.XXXX

Sun May 27 22:48:23 CEST 2012
     0  1  2  3  4  5  6  7  8  9  a  b  c  d  e  f    0123456789abcdef
00: 21 05 01 01 3f 31 e0 00 06 00 a0 0b ec 0f ed ff    !????1?.?.?????.
10: ef ff 10 00 f0 fd ff 7f 00 00 0a 00 0a 00 46 0a    ?.?.??.?..?.?.F?
20: ca 0d 64 00 64 00 9c ff 0a 00 ff ff 18 fc 64 00    ??d.d.?.?...??d.
30: 00 00 50 fb 20 21 06 00 00 00 07 00 XX XX XX XX    ..P? !?...?.XXXX

Sun May 27 22:48:53 CEST 2012
     0  1  2  3  4  5  6  7  8  9  a  b  c  d  e  f    0123456789abcdef
00: 21 05 01 01 3f 31 e0 00 06 00 a0 0b ed 0f fa ff    !????1?.?.?????.
10: ef ff 10 00 b3 fc ff 7f 00 00 0a 00 0a 00 46 0a    ?.?.??.?..?.?.F?
20: ca 0d 64 00 64 00 9c ff 0a 00 ff ff 18 fc 64 00    ??d.d.?.?...??d.
30: 00 00 50 fb 20 21 06 00 00 00 07 00 XX XX XX XX    ..P? !?...?.XXXX

Sun May 27 22:49:23 CEST 2012
     0  1  2  3  4  5  6  7  8  9  a  b  c  d  e  f    0123456789abcdef
00: 21 05 01 01 3f 31 e0 00 06 00 a0 0b eb 0f fc ff    !????1?.?.?????.
10: ef ff 10 00 6f fb ff 7f 00 00 0a 00 0a 00 46 0a    ?.?.o?.?..?.?.F?
20: ca 0d 64 00 64 00 9c ff 0a 00 ff ff 18 fc 64 00    ??d.d.?.?...??d.
30: 00 00 50 fb 20 21 06 00 00 00 07 00 XX XX XX XX    ..P? !?...?.XXXX

Sun May 27 22:49:53 CEST 2012
     0  1  2  3  4  5  6  7  8  9  a  b  c  d  e  f    0123456789abcdef
00: 21 05 01 01 3f 31 e0 00 06 00 a0 0b eb 0f f0 ff    !????1?.?.?????.
10: eb ff 10 00 02 fa ff 7f 00 00 0a 00 0a 00 46 0a    ?.?.??.?..?.?.F?
20: ca 0d 64 00 64 00 9c ff 0a 00 ff ff 18 fc 64 00    ??d.d.?.?...??d.
30: 00 00 50 fb 20 21 06 00 00 00 07 00 XX XX XX XX    ..P? !?...?.XXXX

Sun May 27 22:50:23 CEST 2012
     0  1  2  3  4  5  6  7  8  9  a  b  c  d  e  f    0123456789abcdef
00: 21 05 01 01 3f 31 e0 00 06 00 a0 0b ed 0f f5 ff    !????1?.?.?????.
10: ed ff 10 00 c0 f8 ff 7f 00 00 0a 00 0a 00 46 0a    ?.?.??.?..?.?.F?
20: ca 0d 64 00 64 00 9c ff 0a 00 ff ff 18 fc 64 00    ??d.d.?.?...??d.
30: 00 00 50 fb 20 21 06 00 00 00 07 00 XX XX XX XX    ..P? !?...?.XXXX

Sun May 27 22:50:53 CEST 2012
     0  1  2  3  4  5  6  7  8  9  a  b  c  d  e  f    0123456789abcdef
00: 21 05 01 01 3f 31 e0 00 06 00 a0 0b ed 0f f3 ff    !????1?.?.?????.
10: f2 ff 10 00 81 f7 ff 7f 00 00 0a 00 0a 00 46 0a    ?.?.??.?..?.?.F?
20: ca 0d 64 00 64 00 9c ff 0a 00 ff ff 18 fc 64 00    ??d.d.?.?...??d.
30: 00 00 50 fb 20 21 06 00 00 00 07 00 XX XX XX XX    ..P? !?...?.XXXX

Sun May 27 22:51:23 CEST 2012
     0  1  2  3  4  5  6  7  8  9  a  b  c  d  e  f    0123456789abcdef
00: 21 05 01 01 3f 31 e0 00 06 00 a0 0b ec 0f ec ff    !????1?.?.?????.
10: f4 ff 10 00 3e f6 ff 7f 00 00 0a 00 0a 00 46 0a    ?.?.>?.?..?.?.F?
20: ca 0d 64 00 64 00 9c ff 0a 00 ff ff 18 fc 64 00    ??d.d.?.?...??d.
30: 00 00 50 fb 20 21 06 00 00 00 07 00 XX XX XX XX    ..P? !?...?.XXXX

Sun May 27 22:51:54 CEST 2012
     0  1  2  3  4  5  6  7  8  9  a  b  c  d  e  f    0123456789abcdef
00: 21 05 01 01 3f 31 e0 00 06 00 a0 0b ed 0f ef ff    !????1?.?.?????.
10: f6 ff 10 00 07 f5 ff 7f 00 00 0a 00 0a 00 46 0a    ?.?.??.?..?.?.F?
20: ca 0d 64 00 64 00 9c ff 0a 00 ff ff 18 fc 64 00    ??d.d.?.?...??d.
30: 00 00 50 fb 20 21 06 00 00 00 07 00 XX XX XX XX    ..P? !?...?.XXXX

Sun May 27 22:52:24 CEST 2012
     0  1  2  3  4  5  6  7  8  9  a  b  c  d  e  f    0123456789abcdef
00: 21 05 01 01 3f 31 e0 00 06 00 a0 0b ed 0f fc ff    !????1?.?.?????.
10: f8 ff 10 00 be f3 ff 7f 00 00 0a 00 0a 00 46 0a    ?.?.??.?..?.?.F?
20: ca 0d 64 00 64 00 9c ff 0a 00 ff ff 18 fc 64 00    ??d.d.?.?...??d.
30: 00 00 50 fb 20 21 06 00 00 00 07 00 XX XX XX XX    ..P? !?...?.XXXX

Sun May 27 22:52:54 CEST 2012
     0  1  2  3  4  5  6  7  8  9  a  b  c  d  e  f    0123456789abcdef
00: 21 05 01 01 3f 31 e0 00 06 00 a0 0b ec 0f f4 ff    !????1?.?.?????.
10: f6 ff 10 00 85 f2 ff 7f 00 00 0a 00 0a 00 46 0a    ?.?.??.?..?.?.F?
20: ca 0d 64 00 64 00 9c ff 0a 00 ff ff 18 fc 64 00    ??d.d.?.?...??d.
30: 00 00 50 fb 20 21 06 00 00 00 07 00 XX XX XX XX    ..P? !?...?.XXXX

Sun May 27 22:53:24 CEST 2012
     0  1  2  3  4  5  6  7  8  9  a  b  c  d  e  f    0123456789abcdef
00: 21 05 01 01 3f 31 e0 00 06 00 a0 0b e9 0f ed ff    !????1?.?.?????.
10: f5 ff 10 00 40 f1 ff 7f 00 00 0a 00 0a 00 46 0a    ?.?.@?.?..?.?.F?
20: ca 0d 64 00 64 00 9c ff 0a 00 ff ff 18 fc 64 00    ??d.d.?.?...??d.
30: 00 00 50 fb 20 21 06 00 00 00 07 00 XX XX XX XX    ..P? !?...?.XXXX

Sun May 27 22:53:54 CEST 2012
     0  1  2  3  4  5  6  7  8  9  a  b  c  d  e  f    0123456789abcdef
00: 21 05 01 01 3f 31 e0 00 06 00 a0 0b e9 0f f4 ff    !????1?.?.?????.
10: f8 ff 10 00 09 f0 ff 7f 00 00 0a 00 0a 00 46 0a    ?.?.??.?..?.?.F?
20: ca 0d 64 00 64 00 9c ff 0a 00 ff ff 18 fc 64 00    ??d.d.?.?...??d.
30: 00 00 50 fb 20 21 06 00 00 00 07 00 XX XX XX XX    ..P? !?...?.XXXX

Sun May 27 22:54:24 CEST 2012
     0  1  2  3  4  5  6  7  8  9  a  b  c  d  e  f    0123456789abcdef
00: 21 05 01 01 3f 31 e0 00 06 00 a0 0b ea 0f fa ff    !????1?.?.?????.
10: f7 ff 10 00 cc ee ff 7f 00 00 0a 00 0a 00 46 0a    ?.?.??.?..?.?.F?
20: ca 0d 64 00 64 00 9c ff 0a 00 ff ff 18 fc 64 00    ??d.d.?.?...??d.
30: 00 00 50 fb 20 21 06 00 00 00 07 00 XX XX XX XX    ..P? !?...?.XXXX

Sun May 27 22:54:54 CEST 2012
     0  1  2  3  4  5  6  7  8  9  a  b  c  d  e  f    0123456789abcdef
00: 21 05 01 01 3f 31 e0 00 06 00 a0 0b eb 0f f7 ff    !????1?.?.?????.
10: f6 ff 10 00 5b ed ff 7f 00 00 0a 00 0a 00 46 0a    ?.?.[?.?..?.?.F?
20: ca 0d 64 00 64 00 9c ff 0a 00 ff ff 18 fc 64 00    ??d.d.?.?...??d.
30: 00 00 50 fb 20 21 06 00 00 00 07 00 XX XX XX XX    ..P? !?...?.XXXX

Sun May 27 22:55:24 CEST 2012
     0  1  2  3  4  5  6  7  8  9  a  b  c  d  e  f    0123456789abcdef
00: 21 05 01 01 3f 31 e0 00 06 00 a0 0b eb 0f f7 ff    !????1?.?.?????.
10: f5 ff 10 00 15 ec ff 7f 00 00 0a 00 0a 00 46 0a    ?.?.??.?..?.?.F?
20: ca 0d 64 00 64 00 9c ff 0a 00 ff ff 18 fc 64 00    ??d.d.?.?...??d.
30: 00 00 50 fb 20 21 06 00 00 00 07 00 XX XX XX XX    ..P? !?...?.XXXX

Sun May 27 22:55:54 CEST 2012
     0  1  2  3  4  5  6  7  8  9  a  b  c  d  e  f    0123456789abcdef
00: 21 05 01 01 3f 31 e0 00 06 00 a0 0b eb 0f f8 ff    !????1?.?.?????.
10: f6 ff 10 00 d9 ea ff 7f 00 00 0a 00 0a 00 46 0a    ?.?.??.?..?.?.F?
20: ca 0d 64 00 64 00 9c ff 0a 00 ff ff 18 fc 64 00    ??d.d.?.?...??d.
30: 00 00 50 fb 20 21 06 00 00 00 07 00 XX XX XX XX    ..P? !?...?.XXXX

Sun May 27 22:56:24 CEST 2012
     0  1  2  3  4  5  6  7  8  9  a  b  c  d  e  f    0123456789abcdef
00: 21 05 01 01 3f 31 e0 00 06 00 a0 0b ec 0f f4 ff    !????1?.?.?????.
10: f7 ff 10 00 9c e9 ff 7f 00 00 0a 00 0a 00 46 0a    ?.?.??.?..?.?.F?
20: ca 0d 64 00 64 00 9c ff 0a 00 ff ff 18 fc 64 00    ??d.d.?.?...??d.
30: 00 00 50 fb 20 21 06 00 00 00 07 00 XX XX XX XX    ..P? !?...?.XXXX

Sun May 27 22:56:55 CEST 2012
     0  1  2  3  4  5  6  7  8  9  a  b  c  d  e  f    0123456789abcdef
00: 21 05 01 01 3f 31 e0 00 06 00 a0 0b eb 0f f8 ff    !????1?.?.?????.
10: f7 ff 10 00 6c e8 ff 7f 00 00 0a 00 0a 00 46 0a    ?.?.l?.?..?.?.F?
20: ca 0d 64 00 64 00 9c ff 0a 00 ff ff 18 fc 64 00    ??d.d.?.?...??d.
30: 00 00 50 fb 20 21 06 00 00 00 07 00 XX XX XX XX    ..P? !?...?.XXXX

Sun May 27 22:57:25 CEST 2012
     0  1  2  3  4  5  6  7  8  9  a  b  c  d  e  f    0123456789abcdef
00: 21 05 01 01 3f 31 e0 00 06 00 a0 0b ea 0f fd ff    !????1?.?.?????.
10: f5 ff 10 00 2b e7 ff 7f 00 00 0a 00 0a 00 46 0a    ?.?.+?.?..?.?.F?
20: ca 0d 64 00 64 00 9c ff 0a 00 ff ff 18 fc 64 00    ??d.d.?.?...??d.
30: 00 00 50 fb 20 21 06 00 00 00 07 00 XX XX XX XX    ..P? !?...?.XXXX

Sun May 27 22:57:55 CEST 2012
     0  1  2  3  4  5  6  7  8  9  a  b  c  d  e  f    0123456789abcdef
00: 21 05 01 01 3f 31 e0 00 06 00 a0 0b ea 0f fc ff    !????1?.?.?????.
10: f6 ff 10 00 df e5 ff 7f 00 00 0a 00 0a 00 46 0a    ?.?.??.?..?.?.F?
20: ca 0d 64 00 64 00 9c ff 0a 00 ff ff 18 fc 64 00    ??d.d.?.?...??d.
30: 00 00 50 fb 20 21 06 00 00 00 07 00 XX XX XX XX    ..P? !?...?.XXXX

Sun May 27 22:58:25 CEST 2012
     0  1  2  3  4  5  6  7  8  9  a  b  c  d  e  f    0123456789abcdef
00: 21 05 01 01 3f 31 e0 00 06 00 a0 0b e7 0f fb ff    !????1?.?.?????.
10: f5 ff 10 00 97 e4 ff 7f 00 00 0a 00 0a 00 46 0a    ?.?.??.?..?.?.F?
20: ca 0d 64 00 64 00 9c ff 0a 00 ff ff 18 fc 64 00    ??d.d.?.?...??d.
30: 00 00 50 fb 20 21 06 00 00 00 07 00 XX XX XX XX    ..P? !?...?.XXXX

Sun May 27 22:58:55 CEST 2012
     0  1  2  3  4  5  6  7  8  9  a  b  c  d  e  f    0123456789abcdef
00: 21 05 01 01 3f 31 e0 00 06 00 a0 0b eb 0f ef ff    !????1?.?.?????.
10: f7 ff 10 00 63 e3 ff 7f 00 00 0a 00 0a 00 46 0a    ?.?.c?.?..?.?.F?
20: ca 0d 64 00 64 00 9c ff 0a 00 ff ff 18 fc 64 00    ??d.d.?.?...??d.
30: 00 00 50 fb 20 21 06 00 00 00 07 00 XX XX XX XX    ..P? !?...?.XXXX

Sun May 27 22:59:25 CEST 2012
     0  1  2  3  4  5  6  7  8  9  a  b  c  d  e  f    0123456789abcdef
00: 21 05 01 01 3f 31 e0 00 06 00 a0 0b eb 0f fc ff    !????1?.?.?????.
10: f4 ff 10 00 1f e2 ff 7f 00 00 0a 00 0a 00 46 0a    ?.?.??.?..?.?.F?
20: ca 0d 64 00 64 00 9c ff 0a 00 ff ff 18 fc 64 00    ??d.d.?.?...??d.
30: 00 00 50 fb 20 21 06 00 00 00 07 00 XX XX XX XX    ..P? !?...?.XXXX

Sun May 27 22:59:55 CEST 2012
     0  1  2  3  4  5  6  7  8  9  a  b  c  d  e  f    0123456789abcdef
00: 21 05 01 01 3f 31 e0 00 06 00 a0 0b eb 0f ef ff    !????1?.?.?????.
10: f2 ff 10 00 af e0 ff 7f 00 00 0a 00 0a 00 46 0a    ?.?.??.?..?.?.F?
20: ca 0d 64 00 64 00 9c ff 0a 00 ff ff 18 fc 64 00    ??d.d.?.?...??d.
30: 00 00 50 fb 20 21 06 00 00 00 07 00 XX XX XX XX    ..P? !?...?.XXXX

Sun May 27 23:00:25 CEST 2012
     0  1  2  3  4  5  6  7  8  9  a  b  c  d  e  f    0123456789abcdef
00: 21 05 01 01 3f 31 e0 00 06 00 9f 0b eb 0f ee ff    !????1?.?.?????.
10: f8 ff 10 00 81 df ff 7f 00 00 0a 00 0a 00 46 0a    ?.?.??.?..?.?.F?
20: ca 0d 64 00 64 00 9c ff 0a 00 ff ff 18 fc 64 00    ??d.d.?.?...??d.
30: 00 00 50 fb 20 21 06 00 00 00 07 00 XX XX XX XX    ..P? !?...?.XXXX

Sun May 27 23:00:55 CEST 2012
     0  1  2  3  4  5  6  7  8  9  a  b  c  d  e  f    0123456789abcdef
00: 21 05 01 01 3f 31 e0 00 06 00 a0 0b ea 0f fc ff    !????1?.?.?????.
10: f5 ff 10 00 46 de ff 7f 00 00 0a 00 0a 00 46 0a    ?.?.F?.?..?.?.F?
20: ca 0d 64 00 64 00 9c ff 0a 00 ff ff 18 fc 64 00    ??d.d.?.?...??d.
30: 00 00 50 fb 20 21 06 00 00 00 07 00 XX XX XX XX    ..P? !?...?.XXXX

Sun May 27 23:01:25 CEST 2012
     0  1  2  3  4  5  6  7  8  9  a  b  c  d  e  f    0123456789abcdef
00: 21 05 01 01 3f 31 e0 00 06 00 9f 0b eb 0f fd ff    !????1?.?.?????.
10: f5 ff 10 00 09 dd ff 7f 00 00 0a 00 0a 00 46 0a    ?.?.??.?..?.?.F?
20: ca 0d 64 00 64 00 9c ff 0a 00 ff ff 18 fc 64 00    ??d.d.?.?...??d.
30: 00 00 50 fb 20 21 06 00 00 00 07 00 XX XX XX XX    ..P? !?...?.XXXX

Sun May 27 23:01:56 CEST 2012
     0  1  2  3  4  5  6  7  8  9  a  b  c  d  e  f    0123456789abcdef
00: 21 05 01 01 3f 31 e0 00 06 00 a0 0b ea 0f fb ff    !????1?.?.?????.
10: f4 ff 10 00 c5 db ff 7f 00 00 0a 00 0a 00 46 0a    ?.?.??.?..?.?.F?
20: ca 0d 64 00 64 00 9c ff 0a 00 ff ff 18 fc 64 00    ??d.d.?.?...??d.
30: 00 00 50 fb 20 21 06 00 00 00 07 00 XX XX XX XX    ..P? !?...?.XXXX

Sun May 27 23:02:26 CEST 2012
     0  1  2  3  4  5  6  7  8  9  a  b  c  d  e  f    0123456789abcdef
00: 21 05 01 01 3f 31 e0 00 06 00 9f 0b ea 0f fd ff    !????1?.?.?????.
10: f7 ff 10 00 92 da ff 7f 00 00 0a 00 0a 00 46 0a    ?.?.??.?..?.?.F?
20: ca 0d 64 00 64 00 9c ff 0a 00 ff ff 18 fc 64 00    ??d.d.?.?...??d.
30: 00 00 50 fb 20 21 06 00 00 00 07 00 XX XX XX XX    ..P? !?...?.XXXX

Sun May 27 23:02:56 CEST 2012
     0  1  2  3  4  5  6  7  8  9  a  b  c  d  e  f    0123456789abcdef
00: 21 05 01 01 3f 31 e0 00 06 00 a0 0b e9 0f fd ff    !????1?.?.?????.
10: f6 ff 10 00 5f d9 ff 7f 00 00 0a 00 0a 00 46 0a    ?.?._?.?..?.?.F?
20: ca 0d 64 00 64 00 9c ff 0a 00 ff ff 18 fc 64 00    ??d.d.?.?...??d.
30: 00 00 50 fb 20 21 06 00 00 00 07 00 XX XX XX XX    ..P? !?...?.XXXX

Sun May 27 23:03:26 CEST 2012
     0  1  2  3  4  5  6  7  8  9  a  b  c  d  e  f    0123456789abcdef
00: 21 05 01 01 3f 31 e0 00 06 00 9f 0b ea 0f ef ff    !????1?.?.?????.
10: f3 ff 10 00 26 d8 ff 7f 00 00 0a 00 0a 00 46 0a    ?.?.&?.?..?.?.F?
20: ca 0d 64 00 64 00 9c ff 0a 00 ff ff 18 fc 64 00    ??d.d.?.?...??d.
30: 00 00 50 fb 20 21 06 00 00 00 07 00 XX XX XX XX    ..P? !?...?.XXXX

Sun May 27 23:03:56 CEST 2012
     0  1  2  3  4  5  6  7  8  9  a  b  c  d  e  f    0123456789abcdef
00: 21 05 01 01 3f 31 e0 00 06 00 9f 0b eb 0f fa ff    !????1?.?.?????.
10: f4 ff 10 00 dd d6 ff 7f 00 00 0a 00 0a 00 46 0a    ?.?.??.?..?.?.F?
20: ca 0d 64 00 64 00 9c ff 0a 00 ff ff 18 fc 64 00    ??d.d.?.?...??d.
30: 00 00 50 fb 20 21 06 00 00 00 07 00 XX XX XX XX    ..P? !?...?.XXXX

Sun May 27 23:04:26 CEST 2012
     0  1  2  3  4  5  6  7  8  9  a  b  c  d  e  f    0123456789abcdef
00: 21 05 01 01 3f 31 e0 00 06 00 9f 0b eb 0f fc ff    !????1?.?.?????.
10: f6 ff 10 00 9e d5 ff 7f 00 00 0a 00 0a 00 46 0a    ?.?.??.?..?.?.F?
20: ca 0d 64 00 64 00 9c ff 0a 00 ff ff 18 fc 64 00    ??d.d.?.?...??d.
30: 00 00 50 fb 20 21 06 00 00 00 07 00 XX XX XX XX    ..P? !?...?.XXXX

Sun May 27 23:04:56 CEST 2012
     0  1  2  3  4  5  6  7  8  9  a  b  c  d  e  f    0123456789abcdef
00: 21 05 01 01 3f 31 e0 00 06 00 a0 0b ea 0f fb ff    !????1?.?.?????.
10: f7 ff 10 00 39 d4 ff 7f 00 00 0a 00 0a 00 46 0a    ?.?.9?.?..?.?.F?
20: ca 0d 64 00 64 00 9c ff 0a 00 ff ff 18 fc 64 00    ??d.d.?.?...??d.
30: 00 00 50 fb 20 21 06 00 00 00 07 00 XX XX XX XX    ..P? !?...?.XXXX

Sun May 27 23:05:26 CEST 2012
     0  1  2  3  4  5  6  7  8  9  a  b  c  d  e  f    0123456789abcdef
00: 21 05 01 01 3f 31 e0 00 06 00 a0 0b ea 0f f4 ff    !????1?.?.?????.
10: f7 ff 10 00 ca d2 ff 7f 00 00 0a 00 0a 00 46 0a    ?.?.??.?..?.?.F?
20: ca 0d 64 00 64 00 9c ff 0a 00 ff ff 18 fc 64 00    ??d.d.?.?...??d.
30: 00 00 50 fb 20 21 06 00 00 00 07 00 XX XX XX XX    ..P? !?...?.XXXX

Sun May 27 23:05:56 CEST 2012
     0  1  2  3  4  5  6  7  8  9  a  b  c  d  e  f    0123456789abcdef
00: 21 05 01 01 3f 31 e0 00 06 00 9f 0b e8 0f f4 ff    !????1?.?.?????.
10: f8 ff 10 00 8e d1 ff 7f 00 00 0a 00 0a 00 46 0a    ?.?.??.?..?.?.F?
20: ca 0d 64 00 64 00 9c ff 0a 00 ff ff 18 fc 64 00    ??d.d.?.?...??d.
30: 00 00 50 fb 20 21 06 00 00 00 07 00 XX XX XX XX    ..P? !?...?.XXXX

Sun May 27 23:06:26 CEST 2012
     0  1  2  3  4  5  6  7  8  9  a  b  c  d  e  f    0123456789abcdef
00: 21 05 01 01 3f 31 e0 00 06 00 9f 0b ea 0f f3 ff    !????1?.?.?????.
10: f8 ff 10 00 4f d0 ff 7f 00 00 0a 00 0a 00 46 0a    ?.?.O?.?..?.?.F?
